Running harness with project name: cvdp_copilot_fifo_to_axis_5_1774850743
#1 [internal] load local bake definitions
#1 reading from stdin 714B 0.0s done
#1 DONE 0.0s

#2 [internal] load build definition from Dockerfile
#2 transferring dockerfile:
#2 transferring dockerfile: 96B 0.1s done
#2 DONE 0.2s

#3 [internal] load metadata for ghcr.io/hdl/sim/osvb:latest
#3 DONE 0.6s

#4 [internal] load .dockerignore
#4 transferring context: 2B 0.1s done
#4 DONE 0.2s

#5 [1/2] FROM ghcr.io/hdl/sim/osvb:latest@sha256:6fc999d943f1b8f8c49e7221459ae01e57afd33f7e73c3734b9a65be25e7f434
#5 resolve ghcr.io/hdl/sim/osvb:latest@sha256:6fc999d943f1b8f8c49e7221459ae01e57afd33f7e73c3734b9a65be25e7f434
#5 resolve ghcr.io/hdl/sim/osvb:latest@sha256:6fc999d943f1b8f8c49e7221459ae01e57afd33f7e73c3734b9a65be25e7f434 0.2s done
#5 DONE 0.3s

#6 [2/2] RUN pip install cocotb-bus==0.2.1
#6 CACHED

#7 exporting to image
#7 exporting layers 0.0s done
#7 exporting manifest sha256:9a4720d77ee3b2c1be5b5d4e0b8c9559424f325b3714e62c9efdd3f39c522c8c
#7 exporting manifest sha256:9a4720d77ee3b2c1be5b5d4e0b8c9559424f325b3714e62c9efdd3f39c522c8c 0.3s done
#7 exporting config sha256:3dd5341be8476cf51e7457a85f4d4b01d4e18fd0874cc9dd530c99a3c1ec31a4
#7 exporting config sha256:3dd5341be8476cf51e7457a85f4d4b01d4e18fd0874cc9dd530c99a3c1ec31a4 0.3s done
#7 exporting attestation manifest sha256:c3914fcc072eb98d370e92b5d16203c28c64b401a11902cec5d02d7e2c577323
#7 exporting attestation manifest sha256:c3914fcc072eb98d370e92b5d16203c28c64b401a11902cec5d02d7e2c577323 0.6s done
#7 exporting manifest list sha256:47e42583b9cd34bf7faaceb9765fb6ec2637b525351b19914fb3fabc6accd135
#7 exporting manifest list sha256:47e42583b9cd34bf7faaceb9765fb6ec2637b525351b19914fb3fabc6accd135 0.3s done
#7 naming to docker.io/library/cvdp_copilot_fifo_to_axis_5_1774850743-direct:latest
#7 naming to docker.io/library/cvdp_copilot_fifo_to_axis_5_1774850743-direct:latest 0.0s done
#7 unpacking to docker.io/library/cvdp_copilot_fifo_to_axis_5_1774850743-direct:latest 0.1s done
#7 DONE 2.1s

#8 resolving provenance for metadata file
#8 DONE 0.7s
============================= test session starts ==============================
platform linux -- Python 3.9.2, pytest-8.3.2, pluggy-1.5.0 -- /usr/bin/python3
cachedir: /rundir/harness/.cache
rootdir: /src
collecting ... collected 1 item

../../src/test_runner.py::test_runner      -.--ns INFO     gpi                                ..mbed/gpi_embed.cpp:79   in set_program_name_in_venv        Did not detect Python virtual environment. Using system-wide Python interpreter
     -.--ns INFO     gpi                                ../gpi/GpiCommon.cpp:101  in gpi_print_registered_impl       VPI registered
     0.00ns INFO     cocotb                             Running on Icarus Verilog version 13.0 (devel)
     0.00ns INFO     cocotb                             Running tests with cocotb v1.9.2 from /usr/local/lib/python3.9/dist-packages/cocotb
     0.00ns INFO     cocotb                             Seeding Python random module with 1774850792
     0.00ns INFO     cocotb.regression                  Found test test_fifo_2_axis.test_normal_transfer
     0.00ns INFO     cocotb.regression                  Found test test_fifo_2_axis.test_multiple_blocks
     0.00ns INFO     cocotb.regression                  Found test test_fifo_2_axis.test_flush
     0.00ns INFO     cocotb.regression                  Found test test_fifo_2_axis.test_pause
     0.00ns INFO     cocotb.regression                  Found test test_fifo_2_axis.test_axi_not_ready
     0.00ns INFO     cocotb.regression                  running test_normal_transfer (1/5)
                                                          Test a normal single block transfer with print statements for debugging.
     0.00ns INFO     cocotb                             === Starting test_normal_transfer ===
     0.00ns INFO     cocotb                             Asserting reset
   200.00ns INFO     cocotb                             DUT reset completed.
   200.00ns INFO     cocotb                             After reset Signals: o_block_fifo_act=0, o_block_fifo_stb=0, i_block_fifo_rdy=0, i_block_fifo_size=000000000000000000000000, o_axi_valid=0, o_axi_last=0, i_axi_ready=0, i_flush=0, i_pause=0, o_axi_data=0x00000000, o_axi_user=0x0
   300.00ns INFO     cocotb                             FIFO is ready, block_size=4
   300.00ns INFO     cocotb                             AXI is ready for normal_transfer
   300.00ns INFO     cocotb                             test_normal_transfer: waiting for act at cycle 0 Signals: o_block_fifo_act=0, o_block_fifo_stb=0, i_block_fifo_rdy=1, i_block_fifo_size=000000000000000000000100, o_axi_valid=0, o_axi_last=0, i_axi_ready=1, i_flush=0, i_pause=0, o_axi_data=0x00000000, o_axi_user=0x0
   310.00ns INFO     cocotb                             test_normal_transfer: o_block_fifo_act asserted at cycle 1
   320.00ns INFO     cocotb                             test_normal_transfer: Cycle 0 Signals: o_block_fifo_act=1, o_block_fifo_stb=0, i_block_fifo_rdy=1, i_block_fifo_size=000000000000000000000100, o_axi_valid=0, o_axi_last=0, i_axi_ready=1, i_flush=0, i_pause=0, o_axi_data=0x00000000, o_axi_user=0x0
   330.00ns INFO     cocotb                             test_normal_transfer: Provided FIFO data 0x11 at data_idx=0
   340.00ns INFO     cocotb                             test_normal_transfer: Provided FIFO data 0x22 at data_idx=1
   350.00ns INFO     cocotb                             test_normal_transfer: AXI OUT data=0x00, last=0, user=0x0
   370.00ns INFO     cocotb                             test_normal_transfer: Provided FIFO data 0x33 at data_idx=2
   380.00ns INFO     cocotb                             test_normal_transfer: AXI OUT data=0x22, last=1, user=0x0
   380.00ns INFO     cocotb                             test_normal_transfer: Received last=1, block completed.
   380.00ns INFO     cocotb                             test_normal_transfer: test completed successfully
   380.00ns INFO     cocotb                             === test_normal_transfer completed successfully ===
   381.00ns INFO     cocotb.regression                  test_normal_transfer passed
   381.00ns INFO     cocotb.regression                  running test_multiple_blocks (2/5)
                                                          Test handling multiple consecutive blocks.
   381.00ns INFO     cocotb                             === Starting test_multiple_blocks ===
   381.00ns INFO     cocotb                             Asserting reset
   581.00ns INFO     cocotb                             DUT reset completed.
   581.00ns INFO     cocotb                             After reset Signals: o_block_fifo_act=0, o_block_fifo_stb=0, i_block_fifo_rdy=0, i_block_fifo_size=000000000000000000000000, o_axi_valid=0, o_axi_last=0, i_axi_ready=0, i_flush=0, i_pause=0, o_axi_data=0x00000000, o_axi_user=0x0
   581.00ns INFO     cocotb                             FIFO ready for first block, block_size_1=4
   581.00ns INFO     cocotb                             test_multiple_blocks - first block: waiting for act at cycle 0 Signals: o_block_fifo_act=0, o_block_fifo_stb=0, i_block_fifo_rdy=1, i_block_fifo_size=000000000000000000000100, o_axi_valid=0, o_axi_last=0, i_axi_ready=1, i_flush=0, i_pause=0, o_axi_data=0x00000000, o_axi_user=0x0
   591.00ns INFO     cocotb                             test_multiple_blocks - first block: o_block_fifo_act asserted at cycle 1
   601.00ns INFO     cocotb                             test_multiple_blocks (block1): Cycle 0 Signals: o_block_fifo_act=0, o_block_fifo_stb=0, i_block_fifo_rdy=1, i_block_fifo_size=000000000000000000000100, o_axi_valid=0, o_axi_last=0, i_axi_ready=1, i_flush=0, i_pause=0, o_axi_data=0x00000000, o_axi_user=0x0
   611.00ns INFO     cocotb                             test_multiple_blocks (block1): Provided FIFO data 0x11 at data_idx=0
   621.00ns INFO     cocotb                             test_multiple_blocks (block1): AXI OUT data=0x00, last=0, user=0x0
   641.00ns INFO     cocotb                             test_multiple_blocks (block1): Provided FIFO data 0x22 at data_idx=1
   651.00ns INFO     cocotb                             test_multiple_blocks (block1): AXI OUT data=0x11, last=0, user=0x0
   671.00ns INFO     cocotb                             test_multiple_blocks (block1): Provided FIFO data 0x33 at data_idx=2
   681.00ns INFO     cocotb                             test_multiple_blocks (block1): AXI OUT data=0x22, last=1, user=0x0
   681.00ns INFO     cocotb                             test_multiple_blocks (block1): Received last=1, block completed.
   681.00ns INFO     cocotb                             test_multiple_blocks (block1): test completed successfully
   681.00ns INFO     cocotb                             First block completed, starting second block
   691.00ns INFO     cocotb                             test_multiple_blocks - second block: waiting for act at cycle 0 Signals: o_block_fifo_act=0, o_block_fifo_stb=0, i_block_fifo_rdy=1, i_block_fifo_size=000000000000000000000100, o_axi_valid=0, o_axi_last=0, i_axi_ready=1, i_flush=0, i_pause=0, o_axi_data=0x00000000, o_axi_user=0x0
   701.00ns INFO     cocotb                             test_multiple_blocks - second block: o_block_fifo_act asserted at cycle 1
   711.00ns INFO     cocotb                             test_multiple_blocks (block2): Cycle 0 Signals: o_block_fifo_act=0, o_block_fifo_stb=0, i_block_fifo_rdy=1, i_block_fifo_size=000000000000000000000100, o_axi_valid=0, o_axi_last=0, i_axi_ready=1, i_flush=0, i_pause=0, o_axi_data=0x00000000, o_axi_user=0x0
   721.00ns INFO     cocotb                             test_multiple_blocks (block2): Provided FIFO data 0x55 at data_idx=0
   731.00ns INFO     cocotb                             test_multiple_blocks (block2): AXI OUT data=0x33, last=0, user=0x0
   751.00ns INFO     cocotb                             test_multiple_blocks (block2): Provided FIFO data 0x66 at data_idx=1
   761.00ns INFO     cocotb                             test_multiple_blocks (block2): AXI OUT data=0x55, last=0, user=0x0
   781.00ns INFO     cocotb                             test_multiple_blocks (block2): Provided FIFO data 0x77 at data_idx=2
   791.00ns INFO     cocotb                             test_multiple_blocks (block2): AXI OUT data=0x66, last=1, user=0x0
   791.00ns INFO     cocotb                             test_multiple_blocks (block2): Received last=1, block completed.
   791.00ns INFO     cocotb                             test_multiple_blocks (block2): test completed successfully
   791.00ns INFO     cocotb                             === test_multiple_blocks completed successfully ===
   792.00ns INFO     cocotb.regression                  test_multiple_blocks passed
   792.00ns INFO     cocotb.regression                  running test_flush (3/5)
                                                          Test flushing in the middle of a block.
   792.00ns INFO     cocotb                             === Starting test_flush ===
   792.00ns INFO     cocotb                             Asserting reset
   992.00ns INFO     cocotb                             DUT reset completed.
   992.00ns INFO     cocotb                             After reset Signals: o_block_fifo_act=0, o_block_fifo_stb=0, i_block_fifo_rdy=0, i_block_fifo_size=000000000000000000000000, o_axi_valid=0, o_axi_last=0, i_axi_ready=0, i_flush=0, i_pause=0, o_axi_data=0x00000000, o_axi_user=0x0
   992.00ns INFO     cocotb                             FIFO ready for flush test, block_size=5
   992.00ns INFO     cocotb                             test_flush: waiting for act at cycle 0 Signals: o_block_fifo_act=0, o_block_fifo_stb=0, i_block_fifo_rdy=1, i_block_fifo_size=000000000000000000000101, o_axi_valid=0, o_axi_last=0, i_axi_ready=1, i_flush=0, i_pause=0, o_axi_data=0x00000000, o_axi_user=0x0
  1002.00ns INFO     cocotb                             test_flush: o_block_fifo_act asserted at cycle 1
  1012.00ns INFO     cocotb                             test_flush before flush: Cycle 0 Signals: o_block_fifo_act=0, o_block_fifo_stb=0, i_block_fifo_rdy=1, i_block_fifo_size=000000000000000000000101, o_axi_valid=0, o_axi_last=0, i_axi_ready=1, i_flush=0, i_pause=0, o_axi_data=0x00000000, o_axi_user=0x0
  1022.00ns INFO     cocotb                             test_flush before flush: Provided FIFO data 0x11 at data_idx=0
  1032.00ns INFO     cocotb                             test_flush before flush: AXI OUT data=0x00, last=0, user=0x0
  1052.00ns INFO     cocotb                             test_flush before flush: Provided FIFO data 0x22 at data_idx=1
  1062.00ns INFO     cocotb                             test_flush before flush: AXI OUT data=0x11, last=0, user=0x0
  1092.00ns INFO     cocotb                             test_flush before flush: AXI OUT data=0x22, last=0, user=0x0
  1122.00ns INFO     cocotb                             test_flush before flush: AXI OUT data=0x22, last=1, user=0x0
  1122.00ns INFO     cocotb                             test_flush before flush: Received last=1, partial test scenario completed.
  1122.00ns INFO     cocotb                             Asserting flush in test_flush
  1142.00ns INFO     cocotb                             DUT returned to IDLE after flush
  1142.00ns INFO     cocotb                             === test_flush completed successfully ===
  1143.00ns INFO     cocotb.regression                  test_flush passed
  1143.00ns INFO     cocotb.regression                  running test_pause (4/5)
                                                          Test pausing in the middle of data sending.
  1143.00ns INFO     cocotb                             === Starting test_pause ===
  1143.00ns INFO     cocotb                             Asserting reset
  1343.00ns INFO     cocotb                             DUT reset completed.
  1343.00ns INFO     cocotb                             After reset Signals: o_block_fifo_act=0, o_block_fifo_stb=0, i_block_fifo_rdy=0, i_block_fifo_size=000000000000000000000000, o_axi_valid=0, o_axi_last=0, i_axi_ready=0, i_flush=0, i_pause=0, o_axi_data=0x00000000, o_axi_user=0x0
  1343.00ns INFO     cocotb                             FIFO ready for pause test, block_size=6
  1343.00ns INFO     cocotb                             test_pause: waiting for act at cycle 0 Signals: o_block_fifo_act=0, o_block_fifo_stb=0, i_block_fifo_rdy=1, i_block_fifo_size=000000000000000000000110, o_axi_valid=0, o_axi_last=0, i_axi_ready=1, i_flush=0, i_pause=0, o_axi_data=0x00000000, o_axi_user=0x0
  1353.00ns INFO     cocotb                             test_pause: o_block_fifo_act asserted at cycle 1
  1363.00ns INFO     cocotb                             test_pause - before pause: Cycle 0 Signals: o_block_fifo_act=0, o_block_fifo_stb=1, i_block_fifo_rdy=1, i_block_fifo_size=000000000000000000000110, o_axi_valid=0, o_axi_last=0, i_axi_ready=1, i_flush=0, i_pause=0, o_axi_data=0x00000000, o_axi_user=0x0
  1363.00ns INFO     cocotb                             test_pause - before pause: Provided FIFO data 0x11 at data_idx=0
  1373.00ns INFO     cocotb                             test_pause - before pause: Provided FIFO data 0x22 at data_idx=1
  1383.00ns INFO     cocotb                             test_pause - before pause: AXI OUT data=0x00, last=0, user=0x0
  1403.00ns INFO     cocotb                             test_pause - before pause: Provided FIFO data 0x33 at data_idx=2
  1403.00ns INFO     cocotb                             test_pause - before pause: Provided 3 words and not waiting for last, returning.
  1403.00ns INFO     cocotb                             Pausing AXI send in test_pause
  1413.00ns INFO     cocotb                             test_pause - during pause Signals: o_block_fifo_act=0, o_block_fifo_stb=0, i_block_fifo_rdy=1, i_block_fifo_size=000000000000000000000110, o_axi_valid=1, o_axi_last=0, i_axi_ready=1, i_flush=0, i_pause=1, o_axi_data=0x00000022, o_axi_user=0x0
  1423.00ns INFO     cocotb                             test_pause - during pause Signals: o_block_fifo_act=0, o_block_fifo_stb=0, i_block_fifo_rdy=1, i_block_fifo_size=000000000000000000000110, o_axi_valid=0, o_axi_last=0, i_axi_ready=1, i_flush=0, i_pause=1, o_axi_data=0x00000000, o_axi_user=0x0
  1433.00ns INFO     cocotb                             test_pause - during pause Signals: o_block_fifo_act=0, o_block_fifo_stb=1, i_block_fifo_rdy=1, i_block_fifo_size=000000000000000000000110, o_axi_valid=0, o_axi_last=0, i_axi_ready=1, i_flush=0, i_pause=1, o_axi_data=0x00000000, o_axi_user=0x0
  1443.00ns INFO     cocotb                             test_pause - during pause Signals: o_block_fifo_act=0, o_block_fifo_stb=0, i_block_fifo_rdy=1, i_block_fifo_size=000000000000000000000110, o_axi_valid=0, o_axi_last=0, i_axi_ready=1, i_flush=0, i_pause=1, o_axi_data=0x00000000, o_axi_user=0x0
  1453.00ns INFO     cocotb                             test_pause - during pause Signals: o_block_fifo_act=0, o_block_fifo_stb=0, i_block_fifo_rdy=1, i_block_fifo_size=000000000000000000000110, o_axi_valid=0, o_axi_last=0, i_axi_ready=1, i_flush=0, i_pause=1, o_axi_data=0x00000000, o_axi_user=0x0
  1453.00ns INFO     cocotb                             Resumed AXI send in test_pause
  1463.00ns INFO     cocotb                             test_pause - after pause: Cycle 0 Signals: o_block_fifo_act=0, o_block_fifo_stb=0, i_block_fifo_rdy=1, i_block_fifo_size=000000000000000000000110, o_axi_valid=0, o_axi_last=0, i_axi_ready=1, i_flush=0, i_pause=0, o_axi_data=0x00000000, o_axi_user=0x0
  1473.00ns INFO     cocotb                             test_pause - after pause: AXI OUT data=0x33, last=0, user=0x0
  1493.00ns INFO     cocotb                             test_pause - after pause: Provided FIFO data 0x44 at data_idx=0
  1503.00ns INFO     cocotb                             test_pause - after pause: AXI OUT data=0x33, last=1, user=0x0
  1503.00ns INFO     cocotb                             test_pause - after pause: Received last=1, partial test scenario completed.
  1503.00ns INFO     cocotb                             === test_pause completed successfully ===
  1504.00ns INFO     cocotb.regression                  test_pause passed
  1504.00ns INFO     cocotb.regression                  running test_axi_not_ready (5/5)
                                                          Test scenario when AXI not ready for a while.
  1504.00ns INFO     cocotb                             === Starting test_axi_not_ready ===
  1504.00ns INFO     cocotb                             Asserting reset
  1704.00ns INFO     cocotb                             DUT reset completed.
  1704.00ns INFO     cocotb                             After reset Signals: o_block_fifo_act=0, o_block_fifo_stb=0, i_block_fifo_rdy=0, i_block_fifo_size=000000000000000000000000, o_axi_valid=0, o_axi_last=0, i_axi_ready=0, i_flush=0, i_pause=0, o_axi_data=0x00000000, o_axi_user=0x0
  1704.00ns INFO     cocotb                             FIFO ready, AXI ready initially for axi_not_ready test, block_size=4
  1704.00ns INFO     cocotb                             test_axi_not_ready: waiting for act at cycle 0 Signals: o_block_fifo_act=0, o_block_fifo_stb=0, i_block_fifo_rdy=1, i_block_fifo_size=000000000000000000000100, o_axi_valid=0, o_axi_last=0, i_axi_ready=1, i_flush=0, i_pause=0, o_axi_data=0x00000000, o_axi_user=0x0
  1714.00ns INFO     cocotb                             test_axi_not_ready: o_block_fifo_act asserted at cycle 1
  1724.00ns INFO     cocotb                             test_axi_not_ready - before not ready: Cycle 0 Signals: o_block_fifo_act=0, o_block_fifo_stb=0, i_block_fifo_rdy=1, i_block_fifo_size=000000000000000000000100, o_axi_valid=0, o_axi_last=0, i_axi_ready=1, i_flush=0, i_pause=0, o_axi_data=0x00000000, o_axi_user=0x0
  1734.00ns INFO     cocotb                             test_axi_not_ready - before not ready: Provided FIFO data 0x11 at data_idx=0
  1744.00ns INFO     cocotb                             test_axi_not_ready - before not ready: AXI OUT data=0x00, last=0, user=0x0
  1764.00ns INFO     cocotb                             test_axi_not_ready - before not ready: Provided FIFO data 0x22 at data_idx=1
  1764.00ns INFO     cocotb                             test_axi_not_ready - before not ready: Provided 2 words and not waiting for last, returning.
  1764.00ns INFO     cocotb                             De-asserting AXI ready for a while in test_axi_not_ready
  1774.00ns INFO     cocotb                             test_axi_not_ready - AXI not ready Signals: o_block_fifo_act=0, o_block_fifo_stb=0, i_block_fifo_rdy=1, i_block_fifo_size=000000000000000000000100, o_axi_valid=1, o_axi_last=0, i_axi_ready=0, i_flush=0, i_pause=0, o_axi_data=0x00000011, o_axi_user=0x0
  1784.00ns INFO     cocotb                             test_axi_not_ready - AXI not ready Signals: o_block_fifo_act=0, o_block_fifo_stb=0, i_block_fifo_rdy=1, i_block_fifo_size=000000000000000000000100, o_axi_valid=0, o_axi_last=0, i_axi_ready=0, i_flush=0, i_pause=0, o_axi_data=0x00000000, o_axi_user=0x0
  1794.00ns INFO     cocotb                             test_axi_not_ready - AXI not ready Signals: o_block_fifo_act=0, o_block_fifo_stb=1, i_block_fifo_rdy=1, i_block_fifo_size=000000000000000000000100, o_axi_valid=0, o_axi_last=0, i_axi_ready=0, i_flush=0, i_pause=0, o_axi_data=0x00000000, o_axi_user=0x0
  1804.00ns INFO     cocotb                             test_axi_not_ready - AXI not ready Signals: o_block_fifo_act=0, o_block_fifo_stb=0, i_block_fifo_rdy=1, i_block_fifo_size=000000000000000000000100, o_axi_valid=0, o_axi_last=0, i_axi_ready=0, i_flush=0, i_pause=0, o_axi_data=0x00000000, o_axi_user=0x0
  1814.00ns INFO     cocotb                             test_axi_not_ready - AXI not ready Signals: o_block_fifo_act=0, o_block_fifo_stb=0, i_block_fifo_rdy=1, i_block_fifo_size=000000000000000000000100, o_axi_valid=0, o_axi_last=0, i_axi_ready=0, i_flush=0, i_pause=0, o_axi_data=0x00000000, o_axi_user=0x0
  1824.00ns INFO     cocotb                             test_axi_not_ready - AXI not ready Signals: o_block_fifo_act=0, o_block_fifo_stb=0, i_block_fifo_rdy=1, i_block_fifo_size=000000000000000000000100, o_axi_valid=0, o_axi_last=0, i_axi_ready=0, i_flush=0, i_pause=0, o_axi_data=0x00000000, o_axi_user=0x0
  1834.00ns INFO     cocotb                             test_axi_not_ready - AXI not ready Signals: o_block_fifo_act=0, o_block_fifo_stb=0, i_block_fifo_rdy=1, i_block_fifo_size=000000000000000000000100, o_axi_valid=0, o_axi_last=0, i_axi_ready=0, i_flush=0, i_pause=0, o_axi_data=0x00000000, o_axi_user=0x0
  1844.00ns INFO     cocotb                             test_axi_not_ready - AXI not ready Signals: o_block_fifo_act=0, o_block_fifo_stb=0, i_block_fifo_rdy=1, i_block_fifo_size=000000000000000000000100, o_axi_valid=0, o_axi_last=0, i_axi_ready=0, i_flush=0, i_pause=0, o_axi_data=0x00000000, o_axi_user=0x0
  1854.00ns INFO     cocotb                             test_axi_not_ready - AXI not ready Signals: o_block_fifo_act=0, o_block_fifo_stb=0, i_block_fifo_rdy=1, i_block_fifo_size=000000000000000000000100, o_axi_valid=0, o_axi_last=0, i_axi_ready=0, i_flush=0, i_pause=0, o_axi_data=0x00000000, o_axi_user=0x0
  1864.00ns INFO     cocotb                             test_axi_not_ready - AXI not ready Signals: o_block_fifo_act=0, o_block_fifo_stb=0, i_block_fifo_rdy=1, i_block_fifo_size=000000000000000000000100, o_axi_valid=0, o_axi_last=0, i_axi_ready=0, i_flush=0, i_pause=0, o_axi_data=0x00000000, o_axi_user=0x0
  1864.00ns INFO     cocotb                             AXI ready re-asserted in test_axi_not_ready
  1874.00ns INFO     cocotb                             test_axi_not_ready - after ready: Cycle 0 Signals: o_block_fifo_act=0, o_block_fifo_stb=0, i_block_fifo_rdy=1, i_block_fifo_size=000000000000000000000100, o_axi_valid=0, o_axi_last=0, i_axi_ready=1, i_flush=0, i_pause=0, o_axi_data=0x00000000, o_axi_user=0x0
  1884.00ns INFO     cocotb                             test_axi_not_ready - after ready: AXI OUT data=0x22, last=1, user=0x0
  1884.00ns INFO     cocotb                             test_axi_not_ready - after ready: Received last=1, partial test scenario completed.
  1884.00ns INFO     cocotb                             === test_axi_not_ready completed successfully ===
  1885.00ns INFO     cocotb.regression                  test_axi_not_ready passed
  1885.00ns INFO     cocotb.regression                  ***********************************************************************************************
                                                        ** TEST                                   STATUS  SIM TIME (ns)  REAL TIME (s)  RATIO (ns/s) **
                                                        ***********************************************************************************************
                                                        ** test_fifo_2_axis.test_normal_transfer   PASS         381.00           0.01      71238.85  **
                                                        ** test_fifo_2_axis.test_multiple_blocks   PASS         411.00           0.01      66904.41  **
                                                        ** test_fifo_2_axis.test_flush             PASS         351.00           0.00      76114.19  **
                                                        ** test_fifo_2_axis.test_pause             PASS         361.00           0.01      70327.16  **
                                                        ** test_fifo_2_axis.test_axi_not_ready     PASS         381.00           0.01      67632.89  **
                                                        ***********************************************************************************************
                                                        ** TESTS=5 PASS=5 FAIL=0 SKIP=0                        1885.00           0.06      30256.49  **
                                                        ***********************************************************************************************
                                                        
     -.--ns INFO     gpi                                ..mbed/gpi_embed.cpp:79   in set_program_name_in_venv        Did not detect Python virtual environment. Using system-wide Python interpreter
     -.--ns INFO     gpi                                ../gpi/GpiCommon.cpp:101  in gpi_print_registered_impl       VPI registered
     0.00ns INFO     cocotb                             Running on Icarus Verilog version 13.0 (devel)
     0.00ns INFO     cocotb                             Running tests with cocotb v1.9.2 from /usr/local/lib/python3.9/dist-packages/cocotb
     0.00ns INFO     cocotb                             Seeding Python random module with 1774850792
     0.00ns INFO     cocotb.regression                  Found test test_fifo_2_axis.test_normal_transfer
     0.00ns INFO     cocotb.regression                  Found test test_fifo_2_axis.test_multiple_blocks
     0.00ns INFO     cocotb.regression                  Found test test_fifo_2_axis.test_flush
     0.00ns INFO     cocotb.regression                  Found test test_fifo_2_axis.test_pause
     0.00ns INFO     cocotb.regression                  Found test test_fifo_2_axis.test_axi_not_ready
     0.00ns INFO     cocotb.regression                  running test_normal_transfer (1/5)
                                                          Test a normal single block transfer with print statements for debugging.
     0.00ns INFO     cocotb                             === Starting test_normal_transfer ===
     0.00ns INFO     cocotb                             Asserting reset
   200.00ns INFO     cocotb                             DUT reset completed.
   200.00ns INFO     cocotb                             After reset Signals: o_block_fifo_act=0, o_block_fifo_stb=0, i_block_fifo_rdy=0, i_block_fifo_size=000000000000000000000000, o_axi_valid=0, o_axi_last=0, i_axi_ready=0, i_flush=0, i_pause=0, o_axi_data=0x00000000, o_axi_user=0x0
   300.00ns INFO     cocotb                             FIFO is ready, block_size=4
   300.00ns INFO     cocotb                             AXI is ready for normal_transfer
   300.00ns INFO     cocotb                             test_normal_transfer: waiting for act at cycle 0 Signals: o_block_fifo_act=0, o_block_fifo_stb=0, i_block_fifo_rdy=1, i_block_fifo_size=000000000000000000000100, o_axi_valid=0, o_axi_last=0, i_axi_ready=1, i_flush=0, i_pause=0, o_axi_data=0x00000000, o_axi_user=0x0
   310.00ns INFO     cocotb                             test_normal_transfer: o_block_fifo_act asserted at cycle 1
   320.00ns INFO     cocotb                             test_normal_transfer: Cycle 0 Signals: o_block_fifo_act=1, o_block_fifo_stb=0, i_block_fifo_rdy=1, i_block_fifo_size=000000000000000000000100, o_axi_valid=0, o_axi_last=0, i_axi_ready=1, i_flush=0, i_pause=0, o_axi_data=0x00000000, o_axi_user=0x0
   330.00ns INFO     cocotb                             test_normal_transfer: Provided FIFO data 0x11 at data_idx=0
   340.00ns INFO     cocotb                             test_normal_transfer: Provided FIFO data 0x22 at data_idx=1
   350.00ns INFO     cocotb                             test_normal_transfer: AXI OUT data=0x00, last=0, user=0x0
   370.00ns INFO     cocotb                             test_normal_transfer: Provided FIFO data 0x33 at data_idx=2
   380.00ns INFO     cocotb                             test_normal_transfer: AXI OUT data=0x22, last=1, user=0x0
   380.00ns INFO     cocotb                             test_normal_transfer: Received last=1, block completed.
   380.00ns INFO     cocotb                             test_normal_transfer: test completed successfully
   380.00ns INFO     cocotb                             === test_normal_transfer completed successfully ===
   381.00ns INFO     cocotb.regression                  test_normal_transfer passed
   381.00ns INFO     cocotb.regression                  running test_multiple_blocks (2/5)
                                                          Test handling multiple consecutive blocks.
   381.00ns INFO     cocotb                             === Starting test_multiple_blocks ===
   381.00ns INFO     cocotb                             Asserting reset
   581.00ns INFO     cocotb                             DUT reset completed.
   581.00ns INFO     cocotb                             After reset Signals: o_block_fifo_act=0, o_block_fifo_stb=0, i_block_fifo_rdy=0, i_block_fifo_size=000000000000000000000000, o_axi_valid=0, o_axi_last=0, i_axi_ready=0, i_flush=0, i_pause=0, o_axi_data=0x00000000, o_axi_user=0x0
   581.00ns INFO     cocotb                             FIFO ready for first block, block_size_1=4
   581.00ns INFO     cocotb                             test_multiple_blocks - first block: waiting for act at cycle 0 Signals: o_block_fifo_act=0, o_block_fifo_stb=0, i_block_fifo_rdy=1, i_block_fifo_size=000000000000000000000100, o_axi_valid=0, o_axi_last=0, i_axi_ready=1, i_flush=0, i_pause=0, o_axi_data=0x00000000, o_axi_user=0x0
   591.00ns INFO     cocotb                             test_multiple_blocks - first block: o_block_fifo_act asserted at cycle 1
   601.00ns INFO     cocotb                             test_multiple_blocks (block1): Cycle 0 Signals: o_block_fifo_act=0, o_block_fifo_stb=0, i_block_fifo_rdy=1, i_block_fifo_size=000000000000000000000100, o_axi_valid=0, o_axi_last=0, i_axi_ready=1, i_flush=0, i_pause=0, o_axi_data=0x00000000, o_axi_user=0x0
   611.00ns INFO     cocotb                             test_multiple_blocks (block1): Provided FIFO data 0x11 at data_idx=0
   621.00ns INFO     cocotb                             test_multiple_blocks (block1): AXI OUT data=0x00, last=0, user=0x0
   641.00ns INFO     cocotb                             test_multiple_blocks (block1): Provided FIFO data 0x22 at data_idx=1
   651.00ns INFO     cocotb                             test_multiple_blocks (block1): AXI OUT data=0x11, last=0, user=0x0
   671.00ns INFO     cocotb                             test_multiple_blocks (block1): Provided FIFO data 0x33 at data_idx=2
   681.00ns INFO     cocotb                             test_multiple_blocks (block1): AXI OUT data=0x22, last=1, user=0x0
   681.00ns INFO     cocotb                             test_multiple_blocks (block1): Received last=1, block completed.
   681.00ns INFO     cocotb                             test_multiple_blocks (block1): test completed successfully
   681.00ns INFO     cocotb                             First block completed, starting second block
   691.00ns INFO     cocotb                             test_multiple_blocks - second block: waiting for act at cycle 0 Signals: o_block_fifo_act=0, o_block_fifo_stb=0, i_block_fifo_rdy=1, i_block_fifo_size=000000000000000000000100, o_axi_valid=0, o_axi_last=0, i_axi_ready=1, i_flush=0, i_pause=0, o_axi_data=0x00000000, o_axi_user=0x0
   701.00ns INFO     cocotb                             test_multiple_blocks - second block: o_block_fifo_act asserted at cycle 1
   711.00ns INFO     cocotb                             test_multiple_blocks (block2): Cycle 0 Signals: o_block_fifo_act=0, o_block_fifo_stb=0, i_block_fifo_rdy=1, i_block_fifo_size=000000000000000000000100, o_axi_valid=0, o_axi_last=0, i_axi_ready=1, i_flush=0, i_pause=0, o_axi_data=0x00000000, o_axi_user=0x0
   721.00ns INFO     cocotb                             test_multiple_blocks (block2): Provided FIFO data 0x55 at data_idx=0
   731.00ns INFO     cocotb                             test_multiple_blocks (block2): AXI OUT data=0x33, last=0, user=0x0
   751.00ns INFO     cocotb                             test_multiple_blocks (block2): Provided FIFO data 0x66 at data_idx=1
   761.00ns INFO     cocotb                             test_multiple_blocks (block2): AXI OUT data=0x55, last=0, user=0x0
   781.00ns INFO     cocotb                             test_multiple_blocks (block2): Provided FIFO data 0x77 at data_idx=2
   791.00ns INFO     cocotb                             test_multiple_blocks (block2): AXI OUT data=0x66, last=1, user=0x0
   791.00ns INFO     cocotb                             test_multiple_blocks (block2): Received last=1, block completed.
   791.00ns INFO     cocotb                             test_multiple_blocks (block2): test completed successfully
   791.00ns INFO     cocotb                             === test_multiple_blocks completed successfully ===
   792.00ns INFO     cocotb.regression                  test_multiple_blocks passed
   792.00ns INFO     cocotb.regression                  running test_flush (3/5)
                                                          Test flushing in the middle of a block.
   792.00ns INFO     cocotb                             === Starting test_flush ===
   792.00ns INFO     cocotb                             Asserting reset
   992.00ns INFO     cocotb                             DUT reset completed.
   992.00ns INFO     cocotb                             After reset Signals: o_block_fifo_act=0, o_block_fifo_stb=0, i_block_fifo_rdy=0, i_block_fifo_size=000000000000000000000000, o_axi_valid=0, o_axi_last=0, i_axi_ready=0, i_flush=0, i_pause=0, o_axi_data=0x00000000, o_axi_user=0x0
   992.00ns INFO     cocotb                             FIFO ready for flush test, block_size=5
   992.00ns INFO     cocotb                             test_flush: waiting for act at cycle 0 Signals: o_block_fifo_act=0, o_block_fifo_stb=0, i_block_fifo_rdy=1, i_block_fifo_size=000000000000000000000101, o_axi_valid=0, o_axi_last=0, i_axi_ready=1, i_flush=0, i_pause=0, o_axi_data=0x00000000, o_axi_user=0x0
  1002.00ns INFO     cocotb                             test_flush: o_block_fifo_act asserted at cycle 1
  1012.00ns INFO     cocotb                             test_flush before flush: Cycle 0 Signals: o_block_fifo_act=0, o_block_fifo_stb=0, i_block_fifo_rdy=1, i_block_fifo_size=000000000000000000000101, o_axi_valid=0, o_axi_last=0, i_axi_ready=1, i_flush=0, i_pause=0, o_axi_data=0x00000000, o_axi_user=0x0
  1022.00ns INFO     cocotb                             test_flush before flush: Provided FIFO data 0x11 at data_idx=0
  1032.00ns INFO     cocotb                             test_flush before flush: AXI OUT data=0x00, last=0, user=0x0
  1052.00ns INFO     cocotb                             test_flush before flush: Provided FIFO data 0x22 at data_idx=1
  1062.00ns INFO     cocotb                             test_flush before flush: AXI OUT data=0x11, last=0, user=0x0
  1092.00ns INFO     cocotb                             test_flush before flush: AXI OUT data=0x22, last=0, user=0x0
  1122.00ns INFO     cocotb                             test_flush before flush: AXI OUT data=0x22, last=1, user=0x0
  1122.00ns INFO     cocotb                             test_flush before flush: Received last=1, partial test scenario completed.
  1122.00ns INFO     cocotb                             Asserting flush in test_flush
  1142.00ns INFO     cocotb                             DUT returned to IDLE after flush
  1142.00ns INFO     cocotb                             === test_flush completed successfully ===
  1143.00ns INFO     cocotb.regression                  test_flush passed
  1143.00ns INFO     cocotb.regression                  running test_pause (4/5)
                                                          Test pausing in the middle of data sending.
  1143.00ns INFO     cocotb                             === Starting test_pause ===
  1143.00ns INFO     cocotb                             Asserting reset
  1343.00ns INFO     cocotb                             DUT reset completed.
  1343.00ns INFO     cocotb                             After reset Signals: o_block_fifo_act=0, o_block_fifo_stb=0, i_block_fifo_rdy=0, i_block_fifo_size=000000000000000000000000, o_axi_valid=0, o_axi_last=0, i_axi_ready=0, i_flush=0, i_pause=0, o_axi_data=0x00000000, o_axi_user=0x0
  1343.00ns INFO     cocotb                             FIFO ready for pause test, block_size=6
  1343.00ns INFO     cocotb                             test_pause: waiting for act at cycle 0 Signals: o_block_fifo_act=0, o_block_fifo_stb=0, i_block_fifo_rdy=1, i_block_fifo_size=000000000000000000000110, o_axi_valid=0, o_axi_last=0, i_axi_ready=1, i_flush=0, i_pause=0, o_axi_data=0x00000000, o_axi_user=0x0
  1353.00ns INFO     cocotb                             test_pause: o_block_fifo_act asserted at cycle 1
  1363.00ns INFO     cocotb                             test_pause - before pause: Cycle 0 Signals: o_block_fifo_act=0, o_block_fifo_stb=1, i_block_fifo_rdy=1, i_block_fifo_size=000000000000000000000110, o_axi_valid=0, o_axi_last=0, i_axi_ready=1, i_flush=0, i_pause=0, o_axi_data=0x00000000, o_axi_user=0x0
  1363.00ns INFO     cocotb                             test_pause - before pause: Provided FIFO data 0x11 at data_idx=0
  1373.00ns INFO     cocotb                             test_pause - before pause: Provided FIFO data 0x22 at data_idx=1
  1383.00ns INFO     cocotb                             test_pause - before pause: AXI OUT data=0x00, last=0, user=0x0
  1403.00ns INFO     cocotb                             test_pause - before pause: Provided FIFO data 0x33 at data_idx=2
  1403.00ns INFO     cocotb                             test_pause - before pause: Provided 3 words and not waiting for last, returning.
  1403.00ns INFO     cocotb                             Pausing AXI send in test_pause
  1413.00ns INFO     cocotb                             test_pause - during pause Signals: o_block_fifo_act=0, o_block_fifo_stb=0, i_block_fifo_rdy=1, i_block_fifo_size=000000000000000000000110, o_axi_valid=1, o_axi_last=0, i_axi_ready=1, i_flush=0, i_pause=1, o_axi_data=0x00000022, o_axi_user=0x0
  1423.00ns INFO     cocotb                             test_pause - during pause Signals: o_block_fifo_act=0, o_block_fifo_stb=0, i_block_fifo_rdy=1, i_block_fifo_size=000000000000000000000110, o_axi_valid=0, o_axi_last=0, i_axi_ready=1, i_flush=0, i_pause=1, o_axi_data=0x00000000, o_axi_user=0x0
  1433.00ns INFO     cocotb                             test_pause - during pause Signals: o_block_fifo_act=0, o_block_fifo_stb=1, i_block_fifo_rdy=1, i_block_fifo_size=000000000000000000000110, o_axi_valid=0, o_axi_last=0, i_axi_ready=1, i_flush=0, i_pause=1, o_axi_data=0x00000000, o_axi_user=0x0
  1443.00ns INFO     cocotb                             test_pause - during pause Signals: o_block_fifo_act=0, o_block_fifo_stb=0, i_block_fifo_rdy=1, i_block_fifo_size=000000000000000000000110, o_axi_valid=0, o_axi_last=0, i_axi_ready=1, i_flush=0, i_pause=1, o_axi_data=0x00000000, o_axi_user=0x0
  1453.00ns INFO     cocotb                             test_pause - during pause Signals: o_block_fifo_act=0, o_block_fifo_stb=0, i_block_fifo_rdy=1, i_block_fifo_size=000000000000000000000110, o_axi_valid=0, o_axi_last=0, i_axi_ready=1, i_flush=0, i_pause=1, o_axi_data=0x00000000, o_axi_user=0x0
  1453.00ns INFO     cocotb                             Resumed AXI send in test_pause
  1463.00ns INFO     cocotb                             test_pause - after pause: Cycle 0 Signals: o_block_fifo_act=0, o_block_fifo_stb=0, i_block_fifo_rdy=1, i_block_fifo_size=000000000000000000000110, o_axi_valid=0, o_axi_last=0, i_axi_ready=1, i_flush=0, i_pause=0, o_axi_data=0x00000000, o_axi_user=0x0
  1473.00ns INFO     cocotb                             test_pause - after pause: AXI OUT data=0x33, last=0, user=0x0
  1493.00ns INFO     cocotb                             test_pause - after pause: Provided FIFO data 0x44 at data_idx=0
  1503.00ns INFO     cocotb                             test_pause - after pause: AXI OUT data=0x33, last=1, user=0x0
  1503.00ns INFO     cocotb                             test_pause - after pause: Received last=1, partial test scenario completed.
  1503.00ns INFO     cocotb                             === test_pause completed successfully ===
  1504.00ns INFO     cocotb.regression                  test_pause passed
  1504.00ns INFO     cocotb.regression                  running test_axi_not_ready (5/5)
                                                          Test scenario when AXI not ready for a while.
  1504.00ns INFO     cocotb                             === Starting test_axi_not_ready ===
  1504.00ns INFO     cocotb                             Asserting reset
  1704.00ns INFO     cocotb                             DUT reset completed.
  1704.00ns INFO     cocotb                             After reset Signals: o_block_fifo_act=0, o_block_fifo_stb=0, i_block_fifo_rdy=0, i_block_fifo_size=000000000000000000000000, o_axi_valid=0, o_axi_last=0, i_axi_ready=0, i_flush=0, i_pause=0, o_axi_data=0x00000000, o_axi_user=0x0
  1704.00ns INFO     cocotb                             FIFO ready, AXI ready initially for axi_not_ready test, block_size=4
  1704.00ns INFO     cocotb                             test_axi_not_ready: waiting for act at cycle 0 Signals: o_block_fifo_act=0, o_block_fifo_stb=0, i_block_fifo_rdy=1, i_block_fifo_size=000000000000000000000100, o_axi_valid=0, o_axi_last=0, i_axi_ready=1, i_flush=0, i_pause=0, o_axi_data=0x00000000, o_axi_user=0x0
  1714.00ns INFO     cocotb                             test_axi_not_ready: o_block_fifo_act asserted at cycle 1
  1724.00ns INFO     cocotb                             test_axi_not_ready - before not ready: Cycle 0 Signals: o_block_fifo_act=0, o_block_fifo_stb=0, i_block_fifo_rdy=1, i_block_fifo_size=000000000000000000000100, o_axi_valid=0, o_axi_last=0, i_axi_ready=1, i_flush=0, i_pause=0, o_axi_data=0x00000000, o_axi_user=0x0
  1734.00ns INFO     cocotb                             test_axi_not_ready - before not ready: Provided FIFO data 0x11 at data_idx=0
  1744.00ns INFO     cocotb                             test_axi_not_ready - before not ready: AXI OUT data=0x00, last=0, user=0x0
  1764.00ns INFO     cocotb                             test_axi_not_ready - before not ready: Provided FIFO data 0x22 at data_idx=1
  1764.00ns INFO     cocotb                             test_axi_not_ready - before not ready: Provided 2 words and not waiting for last, returning.
  1764.00ns INFO     cocotb                             De-asserting AXI ready for a while in test_axi_not_ready
  1774.00ns INFO     cocotb                             test_axi_not_ready - AXI not ready Signals: o_block_fifo_act=0, o_block_fifo_stb=0, i_block_fifo_rdy=1, i_block_fifo_size=000000000000000000000100, o_axi_valid=1, o_axi_last=0, i_axi_ready=0, i_flush=0, i_pause=0, o_axi_data=0x00000011, o_axi_user=0x0
  1784.00ns INFO     cocotb                             test_axi_not_ready - AXI not ready Signals: o_block_fifo_act=0, o_block_fifo_stb=0, i_block_fifo_rdy=1, i_block_fifo_size=000000000000000000000100, o_axi_valid=0, o_axi_last=0, i_axi_ready=0, i_flush=0, i_pause=0, o_axi_data=0x00000000, o_axi_user=0x0
  1794.00ns INFO     cocotb                             test_axi_not_ready - AXI not ready Signals: o_block_fifo_act=0, o_block_fifo_stb=1, i_block_fifo_rdy=1, i_block_fifo_size=000000000000000000000100, o_axi_valid=0, o_axi_last=0, i_axi_ready=0, i_flush=0, i_pause=0, o_axi_data=0x00000000, o_axi_user=0x0
  1804.00ns INFO     cocotb                             test_axi_not_ready - AXI not ready Signals: o_block_fifo_act=0, o_block_fifo_stb=0, i_block_fifo_rdy=1, i_block_fifo_size=000000000000000000000100, o_axi_valid=0, o_axi_last=0, i_axi_ready=0, i_flush=0, i_pause=0, o_axi_data=0x00000000, o_axi_user=0x0
  1814.00ns INFO     cocotb                             test_axi_not_ready - AXI not ready Signals: o_block_fifo_act=0, o_block_fifo_stb=0, i_block_fifo_rdy=1, i_block_fifo_size=000000000000000000000100, o_axi_valid=0, o_axi_last=0, i_axi_ready=0, i_flush=0, i_pause=0, o_axi_data=0x00000000, o_axi_user=0x0
  1824.00ns INFO     cocotb                             test_axi_not_ready - AXI not ready Signals: o_block_fifo_act=0, o_block_fifo_stb=0, i_block_fifo_rdy=1, i_block_fifo_size=000000000000000000000100, o_axi_valid=0, o_axi_last=0, i_axi_ready=0, i_flush=0, i_pause=0, o_axi_data=0x00000000, o_axi_user=0x0
  1834.00ns INFO     cocotb                             test_axi_not_ready - AXI not ready Signals: o_block_fifo_act=0, o_block_fifo_stb=0, i_block_fifo_rdy=1, i_block_fifo_size=000000000000000000000100, o_axi_valid=0, o_axi_last=0, i_axi_ready=0, i_flush=0, i_pause=0, o_axi_data=0x00000000, o_axi_user=0x0
  1844.00ns INFO     cocotb                             test_axi_not_ready - AXI not ready Signals: o_block_fifo_act=0, o_block_fifo_stb=0, i_block_fifo_rdy=1, i_block_fifo_size=000000000000000000000100, o_axi_valid=0, o_axi_last=0, i_axi_ready=0, i_flush=0, i_pause=0, o_axi_data=0x00000000, o_axi_user=0x0
  1854.00ns INFO     cocotb                             test_axi_not_ready - AXI not ready Signals: o_block_fifo_act=0, o_block_fifo_stb=0, i_block_fifo_rdy=1, i_block_fifo_size=000000000000000000000100, o_axi_valid=0, o_axi_last=0, i_axi_ready=0, i_flush=0, i_pause=0, o_axi_data=0x00000000, o_axi_user=0x0
  1864.00ns INFO     cocotb                             test_axi_not_ready - AXI not ready Signals: o_block_fifo_act=0, o_block_fifo_stb=0, i_block_fifo_rdy=1, i_block_fifo_size=000000000000000000000100, o_axi_valid=0, o_axi_last=0, i_axi_ready=0, i_flush=0, i_pause=0, o_axi_data=0x00000000, o_axi_user=0x0
  1864.00ns INFO     cocotb                             AXI ready re-asserted in test_axi_not_ready
  1874.00ns INFO     cocotb                             test_axi_not_ready - after ready: Cycle 0 Signals: o_block_fifo_act=0, o_block_fifo_stb=0, i_block_fifo_rdy=1, i_block_fifo_size=000000000000000000000100, o_axi_valid=0, o_axi_last=0, i_axi_ready=1, i_flush=0, i_pause=0, o_axi_data=0x00000000, o_axi_user=0x0
  1884.00ns INFO     cocotb                             test_axi_not_ready - after ready: AXI OUT data=0x22, last=1, user=0x0
  1884.00ns INFO     cocotb                             test_axi_not_ready - after ready: Received last=1, partial test scenario completed.
  1884.00ns INFO     cocotb                             === test_axi_not_ready completed successfully ===
  1885.00ns INFO     cocotb.regression                  test_axi_not_ready passed
  1885.00ns INFO     cocotb.regression                  ***********************************************************************************************
                                                        ** TEST                                   STATUS  SIM TIME (ns)  REAL TIME (s)  RATIO (ns/s) **
                                                        ***********************************************************************************************
                                                        ** test_fifo_2_axis.test_normal_transfer   PASS         381.00           0.01      66341.32  **
                                                        ** test_fifo_2_axis.test_multiple_blocks   PASS         411.00           0.01      60714.22  **
                                                        ** test_fifo_2_axis.test_flush             PASS         351.00           0.01      69489.32  **
                                                        ** test_fifo_2_axis.test_pause             PASS         361.00           0.01      61068.96  **
                                                        ** test_fifo_2_axis.test_axi_not_ready     PASS         381.00           0.01      61836.08  **
                                                        ***********************************************************************************************
                                                        ** TESTS=5 PASS=5 FAIL=0 SKIP=0                        1885.00           0.06      30139.30  **
                                                        ***********************************************************************************************
                                                        
INFO: Running command iverilog -o /code/rundir/sim_build/sim.vvp -D COCOTB_SIM=1 -s ping_pong_fifo_2_axi_stream -g2012 -Pping_pong_fifo_2_axi_stream.DATA_WIDTH=16 -f /code/rundir/sim_build/cmds.f /code/rtl/ping_pong_fifo_2_axi_stream.sv in directory /code/rundir/sim_build
INFO: Running command vvp -M /usr/local/lib/python3.9/dist-packages/cocotb/libs -m libcocotbvpi_icarus /code/rundir/sim_build/sim.vvp in directory /code/rundir/sim_build
INFO: Results file: /code/rundir/sim_build/test_runner.None
Completed test for DATA_WIDTH = 16
Removing: /code/rundir/sim_build
INFO: Running command iverilog -o /code/rundir/sim_build/sim.vvp -D COCOTB_SIM=1 -s ping_pong_fifo_2_axi_stream -g2012 -Pping_pong_fifo_2_axi_stream.DATA_WIDTH=32 -f /code/rundir/sim_build/cmds.f /code/rtl/ping_pong_fifo_2_axi_stream.sv in directory /code/rundir/sim_build
INFO: Running command vvp -M /usr/local/lib/python3.9/dist-packages/cocotb/libs -m libcocotbvpi_icarus /code/rundir/sim_build/sim.vvp in directory /code/rundir/sim_build
INFO: Results file: /code/rundir/sim_build/test_runner.None
Completed test for DATA_WIDTH = 32
PASSED

=============================== warnings summary ===============================
../../src/test_runner.py:3
  /src/test_runner.py:3: UserWarning: Python runners and associated APIs are an experimental feature and subject to change.
    from cocotb.runner import get_runner

../../usr/local/lib/python3.9/dist-packages/_pytest/cacheprovider.py:477
  /usr/local/lib/python3.9/dist-packages/_pytest/cacheprovider.py:477: PytestCacheWarning: could not create cache path /rundir/harness/.cache/v/cache/nodeids: [Errno 13] Permission denied: '/rundir'
    config.cache.set("cache/nodeids", sorted(self.cached_nodeids))

../../usr/local/lib/python3.9/dist-packages/_pytest/stepwise.py:51
  /usr/local/lib/python3.9/dist-packages/_pytest/stepwise.py:51: PytestCacheWarning: could not create cache path /rundir/harness/.cache/v/cache/stepwise: [Errno 13] Permission denied: '/rundir'
    session.config.cache.set(STEPWISE_CACHE_DIR, [])

-- Docs: https://docs.pytest.org/en/stable/how-to/capture-warnings.html
======================== 1 passed, 3 warnings in 1.31s =========================
Cleaning up Docker resources...
Untagged: cvdp_copilot_fifo_to_axis_5_1774850743-direct:latest
Deleted: sha256:47e42583b9cd34bf7faaceb9765fb6ec2637b525351b19914fb3fabc6accd135
