Reference:
```
    repeat (100) begin
        fork
            write_transaction(32'h8000_1000, 32'hA5A5A5A5, 4'hF, 2'b00);
            read_transaction(32'h4000_2000);
        join
    end
```
```

    task automatic write_transaction(input [ADDR_WIDTH-1:0] addr, input [DATA_WIDTH-1:0] data, input [3:0] wstrb, input [1:0] expected_resp);
    inport_awvalid_i = 1;
    inport_awaddr_i = addr;
    inport_wvalid_i = 1;
    inport_wdata_i = data;
    inport_wstrb_i = wstrb;
    expected_resp = 2'b11;

    outport_peripheral0_bvalid_i = 1;
    outport_peripheral0_bresp_i = expected_resp;
    outport_bvalid_i = 1;
    outport_bresp_i = expected_resp;

    #10
    $display("[%0t] inport_bresp_o", $time, inport_bresp_o);

    assert(inport_bresp_o == expected_resp) else $error("Write Response Mismatch!");

    outport_peripheral0_bvalid_i = 0;
    endtask

    task automatic read_transaction(input [ADDR_WIDTH-1:0] addr);
        logic [1:0] expected_resp;
        logic [31:0] expected_data;

        outport_peripheral0_rvalid_i = 1'b1;
        outport_peripheral0_rdata_i = 32'h12345678;
        outport_peripheral0_rresp_i = 2'b11;
        outport_rvalid_i = 1'b1;
        outport_rdata_i = 32'h87654321;
        outport_rresp_i = 2'b10;
        #20
        inport_arvalid_i = 1;
        inport_araddr_i = addr;

        if (addr >= 32'h8000_0000 ) begin
            expected_data = outport_peripheral0_rdata_i;
            expected_resp = outport_peripheral0_rresp_i;
        end
        else begin
            expected_data = outport_rdata_i;
            expected_resp = outport_rresp_i;
        end

        #10
        $display("[%0t] addr %h  ", $time, inport_araddr_i);
        $display("[%0t] inport_rdata_o %h,inport_rresp_o %h,inport_rvalid_o %h ", $time, inport_rdata_o, inport_rresp_o ,inport_rvalid_o);
        $display("[%0t] expected_data %h,expected_resp %h ", $time, expected_data,expected_resp);
        assert(inport_rdata_o == expected_data) else $error("Read Data Mismatch!");
        assert(inport_rresp_o == expected_resp) else $error("Read Response Mismatch!");
        
        outport_rvalid_i = 0;
    endtask

```


Response:
<think>We are given a problem: "Identify the two blocks of code in the axi_tap_tb testbench that route and verify the expected values for the AXI4-Lite transactions based on the address decoding and the corresponding input signals (AW, W, AR, R) in the AXI4-Lite protocol." We are asked to "Provide me one answer for this request: Identify the two blocks of code in the axi_tap_tb testbench that route and verify the expected values for the AXI4-Lite transactions based on the address decoding and the corresponding input signals (AW, W, AR, R) in the AXI4-Lite protocol."

The context: There is a testbench code snippet in file verif/axi_tap_tb.sv. The question is to identify two blocks of code in that testbench that route and verify expected values for the AXI4-Lite transactions based on address decoding and the corresponding input signals (AW, W, AR, R). We are asked to "only give code snippets in the response" and use the response format: { "response": "<your answer here>" }.

We need to identify two blocks of code that route and verify the expected values. Let's examine the testbench code. We'll go through the code and find two blocks that route and verify expected values.

We see that the testbench code includes a section that drives a write transaction and then asserts conditions, and a section that drives a read transaction and asserts conditions.

The code in the testbench is quite long, but the question asks: "Identify the two blocks of code in the axi_tap_tb testbench that route and verify the expected values for the AXI4-Lite transactions based on the address decoding and the corresponding input signals (AW, W, AR, R) in the AXI4-Lite protocol."

So we need to identify two blocks of code that do that. The first block: one block is for the write transaction. We see a block of code that is using the signals: inport_awvalid_i, inport_awaddr_i, inport_wvalid_i, inport_wdata_i, inport_wstrb_i, and then asserts that the peripheral interface is used for addresses >= some threshold (like 32'h9000_0000) and default interface for addresses < threshold (like 32'h4000_0000). Actually, let's check:

In the testbench code, we see a block:

```
        inport_awvalid_i = 1;
        inport_awaddr_i = 32'h9000_0000;
        inport_wvalid_i = 1;
        inport_wdata_i = 32'hDEAD_BEEF;
        inport_wstrb_i = 4'hF;
        expected_response = 2'b11;

        #20;
        $display("[%0t] inport_awvalid_i: %b, inport_awaddr_i: %h, inport_awready_o: %b", $time, inport_awvalid_i, inport_awaddr_i, inport_awready_o);
        $display("[%0t] outport_peripheral0_awvalid_o: %b, outport_peripheral0_awaddr_o: %h", $time, outport_peripheral0_awvalid_o, outport_peripheral0_awaddr_o );
        $display("[%0t] inport_wvalid_i: %b, inport_wdata_i: %h", $time, inport_wvalid_i, inport_wdata_i );
        assert(outport_peripheral0_awaddr_o == inport_awaddr_i) else $error("Wrong awaddr");
        assert(outport_peripheral0_awvalid_o == 1) else $error("Wrong awvalid");
        assert(outport_peripheral0_wdata_o == inport_wdata_i) else $error("Wrong wdata");
        assert(outport_peripheral0_wvalid_o == 1) else $error("Wrong wvalid");
        assert(outport_peripheral0_wstrb_o == inport_wstrb_i) else $error("Wrong wstrb");

        #10
        outport_peripheral0_bresp_i = expected_response;
        outport_peripheral0_bvalid_i = 1;
        #10
        assert(inport_bvalid_o == 1) else $error("Wrong bvalid");
        assert(inport_bresp_o == expected_response) else $error("Wrong bresp");
```
This block appears to be a write transaction that is routed to the peripheral interface because the address is 32'h9000_0000, which is above 32'h8000_0000. And then the testbench asserts that the signals on the peripheral interface (outport_peripheral0_awaddr_o, outport_peripheral0_awvalid_o, outport_peripheral0_wdata_o, outport_peripheral0_wvalid_o, outport_peripheral0_wstrb_o) are equal to the input signals. And then it asserts the expected response.

So one block is the write transaction block that tests routing for peripheral interface. The second block is the read transaction block that tests routing for the default interface. We see another block:

```
        inport_arvalid_i = 1;
        inport_araddr_i = 32'h4000_0000;
        #10
        $display("[%0t] inport_rdata_o: %h, inport_rvalid_o: %h, inport_rresp_o: %b", $time, inport_rdata_o, inport_rvalid_o, inport_rresp_o);
        assert(inport_rdata_o == outport_rdata_i) else $error("Wrong rdata");
        assert(inport_rvalid_o == 1) else $error("Wrong rvalid");

        $display("[%0t] inport_araddr_i: %h", $time, inport_araddr_i);

        if (inport_araddr_i >= 32'h8000_0000 ) begin
            assert(inport_arvalid_i == outport_peripheral0_arvalid_o) else $error("Wrong arvalid");
            assert(inport_araddr_i == outport_peripheral0_araddr_o) else $error("Wrong araddr");
        end
        if (inport_araddr_i < 32'h8000_0000 ) begin
            assert(inport_arvalid_i == outport_arvalid_o) else $error("Wrong arvalid");
            assert(inport_araddr_i == outport_araddr_o) else $error("Wrong araddr");
        end
```
Wait, check carefully. In the code snippet, there is a block that starts with:

```
        #30
        outport_peripheral0_rvalid_i = 1'b1;
        outport_peripheral0_rdata_i = 32'h12345678;
        outport_peripheral0_rresp_i = 2'b11;

        outport_rvalid_i = 1'b1;
        outport_rdata_i = 32'h87654321;
        outport_rresp_i = 2'b10;
        #20

        inport_arvalid_i = 1;
        inport_araddr_i = 32'h4000_0000;
        #10
        $display("[%0t] inport_rdata_o: %h, inport_rvalid_o: %h, inport_rresp_o: %b", $time, inport_rdata_o, inport_rvalid_o, inport_rresp_o);
        assert(inport_rdata_o == outport_rdata_i) else $error("Wrong rdata");
        assert(inport_rvalid_o == 1) else $error("Wrong rvalid");

        $display("[%0t] inport_araddr_i: %h", $time, inport_araddr_i);

        if (inport_araddr_i >= 32'h8000_0000 ) begin
            assert(inport_arvalid_i == outport_peripheral0_arvalid_o) else $error("Wrong arvalid");
            assert(inport_araddr_i == outport_peripheral0_araddr_o) else $error("Wrong araddr");
        end
        if (inport_araddr_i < 32'h8000_0000 ) begin
            assert(inport_arvalid_i == outport_arvalid_o) else $error("Wrong arvalid");
            assert(inport_araddr_i == outport_araddr_o) else $error("Wrong araddr");
        end
```
This block is a read transaction block. But wait, the question says "Identify the two blocks of code in the axi_tap_tb testbench that route and verify the expected values for the AXI4-Lite transactions based on the address decoding and the corresponding input signals (AW, W, AR, R) in the AXI4-Lite protocol."

I need to check carefully: There are two transactions: one for write (AXI Write) and one for read (AXI Read) that verify the routing. But the testbench code is longer and includes multiple sections. But the question specifically says "Identify the two blocks of code in the axi_tap_tb testbench that route and verify the expected values for the AXI4-Lite transactions based on the address decoding and the corresponding input signals (AW, W, AR, R) in the AXI4-Lite protocol." So the answer should include two code blocks: one that deals with the write transaction, and one that deals with the read transaction.

Let's check the write transaction block. There is a block after the first #20 that deals with the write transaction. It looks like:

Block 1 (Write Transaction Block):

```
        inport_awvalid_i = 1;
        inport_awaddr_i = 32'h9000_0000;
        inport_wvalid_i = 1;
        inport_wdata_i = 32'hDEAD_BEEF;
        inport_wstrb_i = 4'hF;
        expected_response = 2'b11;

        #20;
        $display("[%0t] inport_awvalid_i: %b, inport_awaddr_i: %h, inport_awready_o: %b", $time, inport_awvalid_i, inport_awaddr_i, inport_awready_o);
        $display("[%0t] outport_peripheral0_awvalid_o: %b, outport_peripheral0_awaddr_o: %h", $time, outport_peripheral0_awvalid_o, outport_peripheral0_awaddr_o );
        $display("[%0t] inport_wvalid_i: %b, inport_wdata_i: %h", $time, inport_wvalid_i, inport_wdata_i );
        assert(outport_peripheral0_awaddr_o == inport_awaddr_i) else $error("Wrong awaddr");
        assert(outport_peripheral0_awvalid_o == 1) else $error("Wrong awvalid");
        assert(outport_peripheral0_wdata_o == inport_wdata_i) else $error("Wrong wdata");
        assert(outport_peripheral0_wvalid_o == 1) else $error("Wrong wvalid");
        assert(outport_peripheral0_wstrb_o == inport_wstrb_i) else $error("Wrong wstrb");

        #10
        outport_peripheral0_bresp_i = expected_response;
        outport_peripheral0_bvalid_i = 1;
        #10
        assert(inport_bvalid_o == 1) else $error("Wrong bvalid");
        assert(inport_bresp_o == expected_response) else $error("Wrong bresp");
```

This block is the write transaction block that routes to the peripheral interface because the address is 32'h9000_0000. And it verifies that the output signals (outport_peripheral0_awaddr_o, outport_peripheral0_awvalid_o, outport_peripheral0_wdata_o, outport_peripheral0_wvalid_o, outport_peripheral0_wstrb_o) match the input signals. It also verifies the response signals in the backpressure and transaction response.

Block 2 (Read Transaction Block):

The second block is the read transaction block. There are two parts: one for default interface and one for peripheral interface. But I see that there's a block that starts with:

```
        #30
        outport_peripheral0_rvalid_i = 1'b1;
        outport_peripheral0_rdata_i = 32'h12345678;
        outport_peripheral0_rresp_i = 2'b11;

        outport_rvalid_i = 1'b1;
        outport_rdata_i = 32'h87654321;
        outport_rresp_i = 2'b10;
        #20

        inport_arvalid_i = 1;
        inport_araddr_i = 32'h4000_0000;
        #10
        $display("[%0t] inport_rdata_o: %h, inport_rvalid_o: %h, inport_rresp_o: %b", $time, inport_rdata_o, inport_rvalid_o, inport_rresp_o);
        assert(inport_rdata_o == outport_rdata_i) else $error("Wrong rdata");
        assert(inport_rvalid_o == 1) else $error("Wrong rvalid");

        $display("[%0t] inport_araddr_i: %h", $time, inport_araddr_i);

        if (inport_araddr_i >= 32'h8000_0000 ) begin
            assert(inport_arvalid_i == outport_peripheral0_arvalid_o) else $error("Wrong arvalid");
            assert(inport_araddr_i == outport_peripheral0_araddr_o) else $error("Wrong araddr");
        end
        if (inport_araddr_i < 32'h8000_0000 ) begin
            assert(inport_arvalid_i == outport_arvalid_o) else $error("Wrong arvalid");
            assert(inport_araddr_i == outport_araddr_o) else $error("Wrong araddr");
        end
```

This block verifies that the read transaction for an address 32'h4000_0000 (which is less than 32'h8000_0000) is routed to the default interface (outport_rvalid_i, outport_rdata_i, etc.), and then it checks the signals. It also includes an if condition that would route to the peripheral interface if the address is >= 32'h8000_0000, but here the address is 32'h4000_0000 so it goes to default.

So, these two blocks are the answer. But also, later in the code, there are tasks called write_transaction and read_transaction. But the question says "Identify the two blocks of code in the axi_tap_tb testbench that route and verify the expected values for the AXI4-Lite transactions based on the address decoding and the corresponding input signals (AW, W, AR, R) in the AXI4-Lite protocol." It might be referring to these two blocks of code, but we need to choose the ones that are explicit.

Let's check if there is any other block that does that. There is also a loop that iterates for 10 iterations for read transactions, but that's not exactly the same as the two blocks.

I think the answer is: The two blocks of code are the write transaction block and the read transaction block. The write transaction block uses the signals for write address (AW), write data (W) and verifies that the DUT routes them to the peripheral interface for addresses above 32'h8000_0000. The read transaction block uses the signals for read address (AR) and verifies that the DUT routes them to the default interface for addresses below 32'h8000_0000 and to the peripheral interface for addresses above that threshold.

So I'll produce the answer as a JSON object with key "response" and then include the two code blocks as string literals with newlines properly escaped.

I must produce my answer in JSON format with double quotes around keys and values, and proper escaping of quotes within values and newlines.

I need to produce my answer in the format: { "response": "<your answer here>" }.

The answer should only include code snippets in the response. The answer should include two blocks of code from the testbench file, specifically the blocks that route and verify the expected values.

I'll produce the answer as a JSON object with "response" key and the value containing the two code blocks. The answer should include two code blocks, each enclosed in triple backticks or just as a code snippet? The problem says: "Only give code snippets in the response." But the answer must be in JSON format: { "response": "<your answer here>" }.

I can produce the answer with two code blocks separated by newline. But I must be careful with JSON formatting: The response string must be in JSON format with proper escaping of newlines. We need to include newline characters as \n, and also double quotes must be escaped if they appear.

I'll produce something like:

{
  "response": "Block 1: Write Transaction Block:\n\n<code snippet>\n\nBlock 2: Read Transaction Block:\n\n<code snippet>"
}

But the instructions say: "Provide your response using the format: { \"response\": \"<your answer here>\" }". So I'll produce a JSON object with key "response" and value being a string that includes the two code blocks.

I need to include the two blocks of code with proper escaping. The first block of code is:

```
        inport_awvalid_i = 1;
        inport_awaddr_i = 32'h9000_0000;
        inport_wvalid_i = 1;
        inport_wdata_i = 32'hDEAD_BEEF;
        inport_wstrb_i = 4'hF;
        expected_response = 2'b11;

        #20;
        $display("[%0t] inport_awvalid_i: %b, inport_awaddr_i: %h, inport_awready_o: %b", $time, inport_awvalid_i, inport_awaddr_i, inport_awready_o);
        $display("[%0t] outport_peripheral0_awvalid_o: %b, outport_peripheral0_awaddr_o: %h", $time, outport_peripheral0_awvalid_o, outport_peripheral0_awaddr_o );
        $display("[%0t] inport_wvalid_i: %b, inport_wdata_i: %h", $time, inport_wvalid_i, inport_wdata_i );
        assert(outport_peripheral0_awaddr_o == inport_awaddr_i) else $error("Wrong awaddr");
        assert(outport_peripheral0_awvalid_o == 1) else $error("Wrong awvalid");
        assert(outport_peripheral0_wdata_o == inport_wdata_i) else $error("Wrong wdata");
        assert(outport_peripheral0_wvalid_o == 1) else $error("Wrong wvalid");
        assert(outport_peripheral0_wstrb_o == inport_wstrb_i) else $error("Wrong wstrb");

        #10
        outport_peripheral0_bresp_i = expected_response;
        outport_peripheral0_bvalid_i


Score : 0.037166700192699784
