Reference:
```
    repeat (100) begin
        fork
            write_transaction(32'h8000_1000, 32'hA5A5A5A5, 4'hF, 2'b00);
            read_transaction(32'h4000_2000);
        join
    end
```
```

    task automatic write_transaction(input [ADDR_WIDTH-1:0] addr, input [DATA_WIDTH-1:0] data, input [3:0] wstrb, input [1:0] expected_resp);
    inport_awvalid_i = 1;
    inport_awaddr_i = addr;
    inport_wvalid_i = 1;
    inport_wdata_i = data;
    inport_wstrb_i = wstrb;
    expected_resp = 2'b11;

    outport_peripheral0_bvalid_i = 1;
    outport_peripheral0_bresp_i = expected_resp;
    outport_bvalid_i = 1;
    outport_bresp_i = expected_resp;

    #10
    $display("[%0t] inport_bresp_o", $time, inport_bresp_o);

    assert(inport_bresp_o == expected_resp) else $error("Write Response Mismatch!");

    outport_peripheral0_bvalid_i = 0;
    endtask

    task automatic read_transaction(input [ADDR_WIDTH-1:0] addr);
        logic [1:0] expected_resp;
        logic [31:0] expected_data;

        outport_peripheral0_rvalid_i = 1'b1;
        outport_peripheral0_rdata_i = 32'h12345678;
        outport_peripheral0_rresp_i = 2'b11;
        outport_rvalid_i = 1'b1;
        outport_rdata_i = 32'h87654321;
        outport_rresp_i = 2'b10;
        #20
        inport_arvalid_i = 1;
        inport_araddr_i = addr;

        if (addr >= 32'h8000_0000 ) begin
            expected_data = outport_peripheral0_rdata_i;
            expected_resp = outport_peripheral0_rresp_i;
        end
        else begin
            expected_data = outport_rdata_i;
            expected_resp = outport_rresp_i;
        end

        #10
        $display("[%0t] addr %h  ", $time, inport_araddr_i);
        $display("[%0t] inport_rdata_o %h,inport_rresp_o %h,inport_rvalid_o %h ", $time, inport_rdata_o, inport_rresp_o ,inport_rvalid_o);
        $display("[%0t] expected_data %h,expected_resp %h ", $time, expected_data,expected_resp);
        assert(inport_rdata_o == expected_data) else $error("Read Data Mismatch!");
        assert(inport_rresp_o == expected_resp) else $error("Read Response Mismatch!");
        
        outport_rvalid_i = 0;
    endtask

```


Response:
<think>We are asked: "Provide me one answer for this request: Identify the two blocks of code in the axi_tap_tb testbench that route and verify the expected values for the AXI4-Lite transactions based on the address decoding and the corresponding input signals (AW, W, AR, R) in the AXI4-Lite protocol."

So we have to output a JSON response with key "response" and value a string containing code snippet. But instructions say: "Provide one answer for this request: Identify the two blocks of code in the axi_tap_tb testbench that route and verify the expected values for the AXI4-Lite transactions based on the address decoding and the corresponding input signals (AW, W, AR, R) in the AXI4-Lite protocol."

The answer should be a JSON object with key "response" and a string value containing the code snippet. But the instructions say: "Only give code snippets in the response." But instructions also say: "Provide your response using the format: { "response": "<your answer here>" }".

I must now parse the testbench code and identify two blocks that route and verify the expected values for the AXI4-Lite transactions based on address decoding and corresponding input signals.

Let's examine the testbench code: We see a testbench code snippet with simulation steps. There are many blocks of code that route and verify transactions. The code is in SystemVerilog. The code is "axi_tap_tb" and it has multiple blocks. The instructions say "Identify the two blocks of code in the axi_tap_tb testbench that route and verify the expected values for the AXI4-Lite transactions based on the address decoding and the corresponding input signals (AW, W, AR, R) in the AXI4-Lite protocol."

I need to identify two blocks of code that perform address decoding verification and routing verification. Let's search for code blocks that do routing and verification.

I see code blocks that use assert statements to check that the address signals on the output ports match the input signals. For example:

Block 1: The first block that routes a write transaction:
```
inport_awvalid_i = 1;
inport_awaddr_i = 32'h9000_0000;
inport_wvalid_i = 1;
inport_wdata_i = 32'hDEAD_BEEF;
inport_wstrb_i = 4'hF;
expected_response = 2'b11;

#20;
$display("[%0t] inport_awvalid_i: %b, inport_awaddr_i: %h, inport_awready_o: %b", $time, inport_awvalid_i, inport_awaddr_i, inport_awready_o);
$display("[%0t] outport_peripheral0_awvalid_o: %b, outport_peripheral0_awaddr_o: %h", $time, outport_peripheral0_awvalid_o, outport_peripheral0_awaddr_o );
$display("[%0t] inport_wvalid_i: %b, inport_wdata_i: %h", $time, inport_wvalid_i, inport_wdata_i );
assert(outport_peripheral0_awaddr_o == inport_awaddr_i) else $error("Wrong awaddr");
assert(outport_peripheral0_awvalid_o == 1) else $error("Wrong awvalid");
assert(outport_peripheral0_wdata_o == inport_wdata_i) else $error("Wrong wdata");
assert(outport_peripheral0_wvalid_o == 1) else $error("Wrong wvalid");
assert(outport_peripheral0_wstrb_o == inport_wstrb_i) else $error("Wrong wstrb");
```
This block is clearly a block that routes and verifies a write transaction with address 32'h9000_0000 (which is above 32'h8000_0000, so it goes to peripheral interface). It uses assertions to check that the output signals match the input signals.

Block 2: The next block that routes a write transaction to default interface:
```
inport_awvalid_i = 1;
inport_awaddr_i = 32'h4000_0000;
inport_wvalid_i = 1;
inport_wdata_i = 32'hBEEF_FEED;
inport_wstrb_i = 4'hF;
expected_response_default = 2'b10;

#20;
$display("[%0t] inport_awvalid_i: %b, inport_awaddr_i: %h, inport_awready_o: %b", $time, inport_awvalid_i, inport_awaddr_i, inport_awready_o);
$display("[%0t] outport_awvalid_o: %b, outport_awaddr_o: %h", $time, outport_awvalid_o, outport_awaddr_o );
assert(outport_awaddr_o == inport_awaddr_i) else $error("Wrong awaddr");
assert(outport_awvalid_o == 1) else $error("Wrong awvalid");
assert(outport_wdata_o == inport_wdata_i) else $error("Wrong wdata");
assert(outport_wvalid_o == 1) else $error("Wrong wvalid");
assert(outport_wstrb_o == inport_wstrb_i) else $error("Wrong wstrb");
```
This block is routing a write transaction to the default interface (address 32'h4000_0000 is below 32'h8000_0000, so it's default interface) and verifies that the output signals match.

We also have read transaction verification block later in the code:
```
inport_arvalid_i = 1;
inport_araddr_i = 32'h4000_0000;
#10
$display("[%0t] inport_rdata_o: %h, inport_rvalid_o: %h, inport_rresp_o: %b", $time, inport_rdata_o, inport_rvalid_o, inport_rresp_o);
assert(inport_rdata_o == outport_rdata_i) else $error("Wrong rdata");
assert(inport_rvalid_o == 1) else $error("Wrong rvalid");

$display("[%0t] inport_araddr_i: %h", $time, inport_araddr_i);

if (inport_araddr_i >= 32'h8000_0000 ) begin
    assert(inport_arvalid_i == outport_peripheral0_arvalid_o) else $error("Wrong arvalid");
    assert(inport_araddr_i == outport_peripheral0_araddr_o) else $error("Wrong araddr");
end
if (inport_araddr_i < 32'h8000_0000 ) begin
    assert(inport_arvalid_i == outport_arvalid_o) else $error("Wrong arvalid");
    assert(inport_araddr_i == outport_araddr_o) else $error("Wrong araddr");
end
```
But the question says "Identify the two blocks of code in the axi_tap_tb testbench that route and verify the expected values for the AXI4-Lite transactions based on the address decoding and the corresponding input signals (AW, W, AR, R)". It might be ambiguous which two blocks are considered "blocks" - likely the ones that route and verify the expected values for transactions. We see several blocks: The first two blocks that are write transactions (one for peripheral, one for default) are clearly "routing and verifying" expected values for AW, W channels. And then later we have read transaction verification. But the question says "based on the address decoding and the corresponding input signals (AW, W, AR, R)". That might include both read and write transactions. But the question says "Identify the two blocks of code" so probably they are the two blocks that verify the routing based on address decoding. It might be the two blocks for write transactions that use address decoding: one block for transactions with addresses above 32'h8000_0000, and one block for transactions with addresses below 32'h8000_0000.

Let's check the code: In the first block, the testbench uses address 32'h9000_0000 which is above 32'h8000_0000, and then asserts that the corresponding signals are coming out of the peripheral interface. Then the second block uses address 32'h4000_0000 which is below 32'h8000_0000, and then asserts that the corresponding signals are coming out of the default interface.

Yes, so these two blocks are the ones that route and verify the expected values for the AXI4-Lite transactions based on address decoding. They both use AW, W channels.

The question says "Identify the two blocks of code in the axi_tap_tb testbench that route and verify the expected values for the AXI4-Lite transactions based on the address decoding and the corresponding input signals (AW, W, AR, R) in the AXI4-Lite protocol." The answer should be in JSON format with key "response" and value a string containing the code snippet.

But the instructions say: "Only give code snippets in the response." So I must only include code snippets in the response. And I must use the format: { "response": "<your answer here>" }.

I must provide exactly two code snippets that are blocks that route and verify expected values.

Which two blocks? Possibly the two blocks for write transactions: one block for peripheral and one block for default. But also there is read transaction verification. The question says "based on the address decoding and the corresponding input signals (AW, W, AR, R)" which suggests that both read and write transactions are considered. But the question specifically says "AXI4-Lite TAP module in routing AXI4-Lite transactions to the appropriate interfaces based on address decoding" so it's about routing transactions to either default or peripheral interfaces. And the code that does that is the two blocks that simulate a write transaction with address 32'h9000_0000 and 32'h4000_0000. The code that verifies the routing for the read transactions is not explicitly checking the address decoding; it does check "if (inport_araddr_i >= 32'h8000_0000)" then check peripheral else check default. But that is a block as well. However, the question says "Identify the two blocks of code" and then "based on the address decoding and the corresponding input signals (AW, W, AR, R)". The two blocks that are clearly routing are the ones for write transactions, because they assert that the output signals match the input signals.

Let's check the code snippet for the first block:

Block 1 (peripheral write):
```
inport_awvalid_i = 1;
inport_awaddr_i = 32'h9000_0000;
inport_wvalid_i = 1;
inport_wdata_i = 32'hDEAD_BEEF;
inport_wstrb_i = 4'hF;
expected_response = 2'b11;

#20;
$display("[%0t] inport_awvalid_i: %b, inport_awaddr_i: %h, inport_awready_o: %b", $time, inport_awvalid_i, inport_awaddr_i, inport_awready_o);
$display("[%0t] outport_peripheral0_awvalid_o: %b, outport_peripheral0_awaddr_o: %h", $time, outport_peripheral0_awvalid_o, outport_peripheral0_awaddr_o );
$display("[%0t] inport_wvalid_i: %b, inport_wdata_i: %h", $time, inport_wvalid_i, inport_wdata_i );
assert(outport_peripheral0_awaddr_o == inport_awaddr_i) else $error("Wrong awaddr");
assert(outport_peripheral0_awvalid_o == 1) else $error("Wrong awvalid");
assert(outport_peripheral0_wdata_o == inport_wdata_i) else $error("Wrong wdata");
assert(outport_peripheral0_wvalid_o == 1) else $error("Wrong wvalid");
assert(outport_peripheral0_wstrb_o == inport_wstrb_i) else $error("Wrong wstrb");
```
This block is clearly routing the write transaction to the peripheral interface because the address is 32'h9000_0000 which is above 32'h8000_0000.

Block 2 (default write):
```
inport_awvalid_i = 1;
inport_awaddr_i = 32'h4000_0000;
inport_wvalid_i = 1;
inport_wdata_i = 32'hBEEF_FEED;
inport_wstrb_i = 4'hF;
expected_response_default = 2'b10;

#20;
$display("[%0t] inport_awvalid_i: %b, inport_awaddr_i: %h, inport_awready_o: %b", $time, inport_awvalid_i, inport_awaddr_i, inport_awready_o);
$display("[%0t] outport_awvalid_o: %b, outport_awaddr_o: %h", $time, outport_awvalid_o, outport_awaddr_o );
assert(outport_awaddr_o == inport_awaddr_i) else $error("Wrong awaddr");
assert(outport_awvalid_o == 1) else $error("Wrong awvalid");
assert(outport_wdata_o == inport_wdata_i) else $error("Wrong wdata");
assert(outport_wvalid_o == 1) else $error("Wrong wvalid");
assert(outport_wstrb_o == inport_wstrb_i) else $error("Wrong wstrb");
```
This block routes the write transaction to the default interface because the address is 32'h4000_0000 which is below 32'h8000_0000.

I also see a block for read transactions but it's not as clearly two blocks. The question said "two blocks" so likely the answer is these two blocks. So I'll output a JSON object with key "response" and value a string containing these two blocks of code. I need to provide them as code snippets in the response. The instructions require: "Provide your response using the format: { "response": "<your answer here>" }".

The answer should include the two blocks of code exactly. But note that the question says "Identify the two blocks of code" so I must output them in a JSON object with a key "response" and value containing the code snippets. But the instructions say: "Provide your response using the format: { "response": "<your answer here>" }" with the code snippet. I'll produce a JSON object with key "response" and the value as a string containing the code snippet. But the instructions say "Only give code snippets in the response." So I'll output code blocks.

I must also include proper escaping of quotes and newlines.

I can produce a JSON object with key "response" and a value string that is a multi-line string containing the two blocks of code. But instructions require: "Provide your response using the format: { "response": "<your answer here>" }". I must include double quotes around keys and values. And proper escaping of quotes inside the code snippet.

I can output something like:
```
{
  "response": "/* Block 1: Routing and verifying write transaction to Peripheral Interface */\n\ninport_awvalid_i = 1;\ninport_awaddr_i = 32'h9000_0000;\ninport_wvalid_i = 1;\ninport_wdata_i = 32'hDEAD_BEEF;\ninport_wstrb_i = 4'hF;\nexpected_response = 2'b11;\n\n#20;\n$display(\"[%0t] inport_awvalid_i: %b, inport_awaddr_i: %h, inport_awready_o: %b\", $time, inport_awvalid_i, inport_awaddr_i, inport_awready_o);\n$display(\"[%0t] outport_peripheral0_awvalid_o: %b, outport_peripheral0_awaddr_o: %h\", $time, outport_peripheral0_awvalid_o, outport_peripheral0_awaddr_o);\n$display(\"[%0t] inport_wvalid_i: %b, inport_wdata_i: %h\", $time, inport_wvalid_i, inport_wdata_i);\nassert(outport_peripheral0_awaddr_o == inport_awaddr_i) else $error(\"Wrong awaddr\");\nassert(outport_peripheral0_awvalid_o == 1) else $error(\"Wrong awvalid\");\nassert(outport_peripheral0_wdata_o == inport_wdata_i) else $error(\"Wrong wdata\");\nassert(outport_peripheral0_wvalid_o == 1) else $error(\"Wrong wvalid\");\nassert(outport_peripheral0_wstrb_o == inport_wstrb_i) else $error(\"Wrong wstrb\");\n\n\n/* Block 2: Routing and verifying write transaction to Default Interface */\n\ninport_awvalid_i = 1;\ninport_awaddr_i = 32'h4000_0000;\ninport_wvalid_i = 1;\ninport_wdata_i = 32'hBEEF_FEED;\ninport_wstrb_i = 4'hF;\nexpected_response_default = 2'b10;\n\n#20;\n$display(\"[%0t] inport_awvalid_i: %b, inport_awaddr_i: %h, inport_awready_o: %b\", $time, inport_awvalid_i, inport_awaddr_i, inport_awready_o);\n$display(\"[%0t] outport_awvalid_o: %b, outport_awaddr_o: %h\", $time, outport_awvalid_o, outport_awaddr_o);\nassert(outport_awaddr_o == inport_awaddr_i) else $error(\"Wrong awaddr\");\nassert(outport_awvalid_o == 1) else $error(\"Wrong awvalid\");\nassert(outport_wdata_o == inport_wdata_i) else $error(\"Wrong wdata\");\nassert(outport_wvalid_o == 1) else $error(\"Wrong wvalid\");\nassert(outport_wstrb_o == inport_wstrb_i) else $error(\"Wrong wstrb\");\n"
}
```
I need to ensure that newlines are properly escaped (with \n) and quotes are escaped properly. I'll produce a JSON string with double quotes.

I must include code snippet in one JSON object. So I'll produce a JSON object with key "response" and the value is a string that contains the two code blocks.

I must include the code blocks exactly as in the provided testbench code. I'll check the code snippet for block 1 and block 2. I'll copy them exactly.

Block 1:
```
inport_awvalid_i = 1;
inport_awaddr_i = 32'h9000_0000;
inport_wvalid_i = 1;
inport_wdata_i = 32'hDEAD_BEEF;
inport_wstrb_i = 4'hF;


Score : 0.09420289855072464
