Running harness with project name: cvdp_copilot_fifo_to_axis_5_1774591280
#1 [internal] load local bake definitions
#1 reading from stdin 714B done
#1 DONE 0.0s

#2 [internal] load build definition from Dockerfile
#2 transferring dockerfile: 96B done
#2 DONE 0.2s

#3 [internal] load metadata for ghcr.io/hdl/sim/osvb:latest
#3 DONE 0.4s

#4 [internal] load .dockerignore
#4 transferring context: 2B done
#4 DONE 0.1s

#5 [1/2] FROM ghcr.io/hdl/sim/osvb:latest@sha256:6fc999d943f1b8f8c49e7221459ae01e57afd33f7e73c3734b9a65be25e7f434
#5 resolve ghcr.io/hdl/sim/osvb:latest@sha256:6fc999d943f1b8f8c49e7221459ae01e57afd33f7e73c3734b9a65be25e7f434
#5 resolve ghcr.io/hdl/sim/osvb:latest@sha256:6fc999d943f1b8f8c49e7221459ae01e57afd33f7e73c3734b9a65be25e7f434 0.2s done
#5 DONE 0.3s

#6 [2/2] RUN pip install cocotb-bus==0.2.1
#6 CACHED

#7 exporting to image
#7 exporting layers done
#7 exporting manifest sha256:3f9ff403b857bc49f82fdf1e6f6e814718ee86796a153d6883ed8d5201ba1be4
#7 exporting manifest sha256:3f9ff403b857bc49f82fdf1e6f6e814718ee86796a153d6883ed8d5201ba1be4 0.3s done
#7 exporting config sha256:9149ad4bec6b766a4a7585be1f4b26d6b23de3cc40a1214e6b8c41e0a6ca6dac
#7 exporting config sha256:9149ad4bec6b766a4a7585be1f4b26d6b23de3cc40a1214e6b8c41e0a6ca6dac 0.3s done
#7 exporting attestation manifest sha256:274fe5a0903711d9f48af61f8a1a9776428282ae9598e8df952f2fad0278cb39
#7 exporting attestation manifest sha256:274fe5a0903711d9f48af61f8a1a9776428282ae9598e8df952f2fad0278cb39 0.5s done
#7 exporting manifest list sha256:6c4e726be588a251a188eaa07a4b86475b324643e616c6d81ff826f2a5b93ce1
#7 exporting manifest list sha256:6c4e726be588a251a188eaa07a4b86475b324643e616c6d81ff826f2a5b93ce1 0.3s done
#7 naming to docker.io/library/cvdp_copilot_fifo_to_axis_5_1774591280-direct:latest
#7 naming to docker.io/library/cvdp_copilot_fifo_to_axis_5_1774591280-direct:latest 0.0s done
#7 unpacking to docker.io/library/cvdp_copilot_fifo_to_axis_5_1774591280-direct:latest 0.0s done
#7 DONE 1.8s

#8 resolving provenance for metadata file
#8 DONE 0.0s
============================= test session starts ==============================
platform linux -- Python 3.9.2, pytest-8.3.2, pluggy-1.5.0 -- /usr/bin/python3
cachedir: /rundir/harness/.cache
rootdir: /src
collecting ... collected 1 item

../../src/test_runner.py::test_runner      -.--ns INFO     gpi                                ..mbed/gpi_embed.cpp:79   in set_program_name_in_venv        Did not detect Python virtual environment. Using system-wide Python interpreter
     -.--ns INFO     gpi                                ../gpi/GpiCommon.cpp:101  in gpi_print_registered_impl       VPI registered
     0.00ns INFO     cocotb                             Running on Icarus Verilog version 13.0 (devel)
     0.00ns INFO     cocotb                             Running tests with cocotb v1.9.2 from /usr/local/lib/python3.9/dist-packages/cocotb
     0.00ns INFO     cocotb                             Seeding Python random module with 1774591289
     0.00ns INFO     cocotb.regression                  Found test test_fifo_2_axis.test_normal_transfer
     0.00ns INFO     cocotb.regression                  Found test test_fifo_2_axis.test_multiple_blocks
     0.00ns INFO     cocotb.regression                  Found test test_fifo_2_axis.test_flush
     0.00ns INFO     cocotb.regression                  Found test test_fifo_2_axis.test_pause
     0.00ns INFO     cocotb.regression                  Found test test_fifo_2_axis.test_axi_not_ready
     0.00ns INFO     cocotb.regression                  running test_normal_transfer (1/5)
                                                          Test a normal single block transfer with print statements for debugging.
     0.00ns INFO     cocotb                             === Starting test_normal_transfer ===
     0.00ns INFO     cocotb                             Asserting reset
   200.00ns INFO     cocotb                             DUT reset completed.
   200.00ns INFO     cocotb                             After reset Signals: o_block_fifo_act=0, o_block_fifo_stb=0, i_block_fifo_rdy=0, i_block_fifo_size=000000000000000000000000, o_axi_valid=0, o_axi_last=0, i_axi_ready=0, i_flush=0, i_pause=0, o_axi_data=0x00000000, o_axi_user=0x0
   300.00ns INFO     cocotb                             FIFO is ready, block_size=4
   300.00ns INFO     cocotb                             AXI is ready for normal_transfer
   300.00ns INFO     cocotb                             test_normal_transfer: waiting for act at cycle 0 Signals: o_block_fifo_act=0, o_block_fifo_stb=0, i_block_fifo_rdy=1, i_block_fifo_size=000000000000000000000100, o_axi_valid=0, o_axi_last=0, i_axi_ready=1, i_flush=0, i_pause=0, o_axi_data=0x00000000, o_axi_user=0x0
   310.00ns INFO     cocotb                             test_normal_transfer: o_block_fifo_act asserted at cycle 1
   320.00ns INFO     cocotb                             test_normal_transfer: Cycle 0 Signals: o_block_fifo_act=0, o_block_fifo_stb=1, i_block_fifo_rdy=1, i_block_fifo_size=000000000000000000000100, o_axi_valid=0, o_axi_last=0, i_axi_ready=1, i_flush=0, i_pause=0, o_axi_data=0x00000000, o_axi_user=0x0
   320.00ns INFO     cocotb                             test_normal_transfer: Provided FIFO data 0x11 at data_idx=0
   330.00ns INFO     cocotb                             test_normal_transfer: AXI OUT data=0x00, last=0, user=0x0
   340.00ns INFO     cocotb                             test_normal_transfer: Provided FIFO data 0x22 at data_idx=1
   350.00ns INFO     cocotb                             test_normal_transfer: AXI OUT data=0x11, last=0, user=0x0
   360.00ns INFO     cocotb                             test_normal_transfer: Provided FIFO data 0x33 at data_idx=2
   370.00ns INFO     cocotb                             test_normal_transfer: AXI OUT data=0x22, last=0, user=0x0
   380.00ns INFO     cocotb                             test_normal_transfer: Provided FIFO data 0x44 at data_idx=3
   390.00ns INFO     cocotb                             test_normal_transfer: AXI OUT data=0x33, last=0, user=0x0
   410.00ns INFO     cocotb                             test_normal_transfer: AXI OUT data=0x44, last=1, user=0x0
   410.00ns INFO     cocotb                             test_normal_transfer: Received last=1, block completed.
   410.00ns INFO     cocotb                             test_normal_transfer: test completed successfully
   410.00ns INFO     cocotb                             === test_normal_transfer completed successfully ===
   411.00ns INFO     cocotb.regression                  test_normal_transfer passed
   411.00ns INFO     cocotb.regression                  running test_multiple_blocks (2/5)
                                                          Test handling multiple consecutive blocks.
   411.00ns INFO     cocotb                             === Starting test_multiple_blocks ===
   411.00ns INFO     cocotb                             Asserting reset
   611.00ns INFO     cocotb                             DUT reset completed.
   611.00ns INFO     cocotb                             After reset Signals: o_block_fifo_act=0, o_block_fifo_stb=0, i_block_fifo_rdy=0, i_block_fifo_size=000000000000000000000000, o_axi_valid=0, o_axi_last=0, i_axi_ready=0, i_flush=0, i_pause=0, o_axi_data=0x00000000, o_axi_user=0x0
   611.00ns INFO     cocotb                             FIFO ready for first block, block_size_1=4
   611.00ns INFO     cocotb                             test_multiple_blocks - first block: waiting for act at cycle 0 Signals: o_block_fifo_act=0, o_block_fifo_stb=0, i_block_fifo_rdy=1, i_block_fifo_size=000000000000000000000100, o_axi_valid=0, o_axi_last=0, i_axi_ready=1, i_flush=0, i_pause=0, o_axi_data=0x00000000, o_axi_user=0x0
   621.00ns INFO     cocotb                             test_multiple_blocks - first block: o_block_fifo_act asserted at cycle 1
   631.00ns INFO     cocotb                             test_multiple_blocks (block1): Cycle 0 Signals: o_block_fifo_act=0, o_block_fifo_stb=1, i_block_fifo_rdy=1, i_block_fifo_size=000000000000000000000100, o_axi_valid=0, o_axi_last=0, i_axi_ready=1, i_flush=0, i_pause=0, o_axi_data=0x00000000, o_axi_user=0x0
   631.00ns INFO     cocotb                             test_multiple_blocks (block1): Provided FIFO data 0x11 at data_idx=0
   641.00ns INFO     cocotb                             test_multiple_blocks (block1): AXI OUT data=0x00, last=0, user=0x0
   651.00ns INFO     cocotb                             test_multiple_blocks (block1): Provided FIFO data 0x22 at data_idx=1
   661.00ns INFO     cocotb                             test_multiple_blocks (block1): AXI OUT data=0x11, last=0, user=0x0
   671.00ns INFO     cocotb                             test_multiple_blocks (block1): Provided FIFO data 0x33 at data_idx=2
   681.00ns INFO     cocotb                             test_multiple_blocks (block1): AXI OUT data=0x22, last=0, user=0x0
   691.00ns INFO     cocotb                             test_multiple_blocks (block1): Provided FIFO data 0x44 at data_idx=3
   701.00ns INFO     cocotb                             test_multiple_blocks (block1): AXI OUT data=0x33, last=0, user=0x0
   721.00ns INFO     cocotb                             test_multiple_blocks (block1): AXI OUT data=0x44, last=1, user=0x0
   721.00ns INFO     cocotb                             test_multiple_blocks (block1): Received last=1, block completed.
   721.00ns INFO     cocotb                             test_multiple_blocks (block1): test completed successfully
   721.00ns INFO     cocotb                             First block completed, starting second block
   731.00ns INFO     cocotb                             test_multiple_blocks - second block: o_block_fifo_act asserted at cycle 0
   741.00ns INFO     cocotb                             test_multiple_blocks (block2): Cycle 0 Signals: o_block_fifo_act=0, o_block_fifo_stb=1, i_block_fifo_rdy=1, i_block_fifo_size=000000000000000000000100, o_axi_valid=0, o_axi_last=0, i_axi_ready=1, i_flush=0, i_pause=0, o_axi_data=0x00000044, o_axi_user=0x0
   741.00ns INFO     cocotb                             test_multiple_blocks (block2): Provided FIFO data 0x55 at data_idx=0
   751.00ns INFO     cocotb                             test_multiple_blocks (block2): AXI OUT data=0x44, last=0, user=0x0
   761.00ns INFO     cocotb                             test_multiple_blocks (block2): Provided FIFO data 0x66 at data_idx=1
   771.00ns INFO     cocotb                             test_multiple_blocks (block2): AXI OUT data=0x55, last=0, user=0x0
   781.00ns INFO     cocotb                             test_multiple_blocks (block2): Provided FIFO data 0x77 at data_idx=2
   791.00ns INFO     cocotb                             test_multiple_blocks (block2): AXI OUT data=0x66, last=0, user=0x0
   801.00ns INFO     cocotb                             test_multiple_blocks (block2): Provided FIFO data 0x88 at data_idx=3
   811.00ns INFO     cocotb                             test_multiple_blocks (block2): AXI OUT data=0x77, last=0, user=0x0
   831.00ns INFO     cocotb                             test_multiple_blocks (block2): AXI OUT data=0x88, last=1, user=0x0
   831.00ns INFO     cocotb                             test_multiple_blocks (block2): Received last=1, block completed.
   831.00ns INFO     cocotb                             test_multiple_blocks (block2): test completed successfully
   831.00ns INFO     cocotb                             === test_multiple_blocks completed successfully ===
   832.00ns INFO     cocotb.regression                  test_multiple_blocks passed
   832.00ns INFO     cocotb.regression                  running test_flush (3/5)
                                                          Test flushing in the middle of a block.
   832.00ns INFO     cocotb                             === Starting test_flush ===
   832.00ns INFO     cocotb                             Asserting reset
  1032.00ns INFO     cocotb                             DUT reset completed.
  1032.00ns INFO     cocotb                             After reset Signals: o_block_fifo_act=0, o_block_fifo_stb=0, i_block_fifo_rdy=0, i_block_fifo_size=000000000000000000000000, o_axi_valid=0, o_axi_last=0, i_axi_ready=0, i_flush=0, i_pause=0, o_axi_data=0x00000000, o_axi_user=0x0
  1032.00ns INFO     cocotb                             FIFO ready for flush test, block_size=5
  1032.00ns INFO     cocotb                             test_flush: waiting for act at cycle 0 Signals: o_block_fifo_act=0, o_block_fifo_stb=0, i_block_fifo_rdy=1, i_block_fifo_size=000000000000000000000101, o_axi_valid=0, o_axi_last=0, i_axi_ready=1, i_flush=0, i_pause=0, o_axi_data=0x00000000, o_axi_user=0x0
  1042.00ns INFO     cocotb                             test_flush: o_block_fifo_act asserted at cycle 1
  1052.00ns INFO     cocotb                             test_flush before flush: Cycle 0 Signals: o_block_fifo_act=0, o_block_fifo_stb=1, i_block_fifo_rdy=1, i_block_fifo_size=000000000000000000000101, o_axi_valid=0, o_axi_last=0, i_axi_ready=1, i_flush=0, i_pause=0, o_axi_data=0x00000000, o_axi_user=0x0
  1052.00ns INFO     cocotb                             test_flush before flush: Provided FIFO data 0x11 at data_idx=0
  1062.00ns INFO     cocotb                             test_flush before flush: AXI OUT data=0x00, last=0, user=0x0
  1072.00ns INFO     cocotb                             test_flush before flush: Provided FIFO data 0x22 at data_idx=1
  1082.00ns INFO     cocotb                             test_flush before flush: AXI OUT data=0x11, last=0, user=0x0
  1102.00ns INFO     cocotb                             test_flush before flush: AXI OUT data=0x22, last=0, user=0x0
  1122.00ns INFO     cocotb                             test_flush before flush: AXI OUT data=0x22, last=0, user=0x0
  1142.00ns INFO     cocotb                             test_flush before flush: AXI OUT data=0x22, last=0, user=0x0
  1162.00ns INFO     cocotb                             test_flush before flush: AXI OUT data=0x22, last=1, user=0x0
  1162.00ns INFO     cocotb                             test_flush before flush: Received last=1, partial test scenario completed.
  1162.00ns INFO     cocotb                             Asserting flush in test_flush
  1182.00ns INFO     cocotb                             DUT returned to IDLE after flush
  1182.00ns INFO     cocotb                             === test_flush completed successfully ===
  1183.00ns INFO     cocotb.regression                  test_flush passed
  1183.00ns INFO     cocotb.regression                  running test_pause (4/5)
                                                          Test pausing in the middle of data sending.
  1183.00ns INFO     cocotb                             === Starting test_pause ===
  1183.00ns INFO     cocotb                             Asserting reset
  1383.00ns INFO     cocotb                             DUT reset completed.
  1383.00ns INFO     cocotb                             After reset Signals: o_block_fifo_act=0, o_block_fifo_stb=0, i_block_fifo_rdy=0, i_block_fifo_size=000000000000000000000000, o_axi_valid=0, o_axi_last=0, i_axi_ready=0, i_flush=0, i_pause=0, o_axi_data=0x00000000, o_axi_user=0x0
  1383.00ns INFO     cocotb                             FIFO ready for pause test, block_size=6
  1383.00ns INFO     cocotb                             test_pause: waiting for act at cycle 0 Signals: o_block_fifo_act=0, o_block_fifo_stb=0, i_block_fifo_rdy=1, i_block_fifo_size=000000000000000000000110, o_axi_valid=0, o_axi_last=0, i_axi_ready=1, i_flush=0, i_pause=0, o_axi_data=0x00000000, o_axi_user=0x0
  1393.00ns INFO     cocotb                             test_pause: o_block_fifo_act asserted at cycle 1
  1403.00ns INFO     cocotb                             test_pause - before pause: Cycle 0 Signals: o_block_fifo_act=0, o_block_fifo_stb=1, i_block_fifo_rdy=1, i_block_fifo_size=000000000000000000000110, o_axi_valid=0, o_axi_last=0, i_axi_ready=1, i_flush=0, i_pause=0, o_axi_data=0x00000000, o_axi_user=0x0
  1403.00ns INFO     cocotb                             test_pause - before pause: Provided FIFO data 0x11 at data_idx=0
  1413.00ns INFO     cocotb                             test_pause - before pause: AXI OUT data=0x00, last=0, user=0x0
  1423.00ns INFO     cocotb                             test_pause - before pause: Provided FIFO data 0x22 at data_idx=1
  1433.00ns INFO     cocotb                             test_pause - before pause: AXI OUT data=0x11, last=0, user=0x0
  1443.00ns INFO     cocotb                             test_pause - before pause: Provided FIFO data 0x33 at data_idx=2
  1443.00ns INFO     cocotb                             test_pause - before pause: Provided 3 words and not waiting for last, returning.
  1443.00ns INFO     cocotb                             Pausing AXI send in test_pause
  1453.00ns INFO     cocotb                             test_pause - during pause Signals: o_block_fifo_act=0, o_block_fifo_stb=0, i_block_fifo_rdy=1, i_block_fifo_size=000000000000000000000110, o_axi_valid=1, o_axi_last=0, i_axi_ready=1, i_flush=0, i_pause=1, o_axi_data=0x00000022, o_axi_user=0x0
  1463.00ns INFO     cocotb                             test_pause - during pause Signals: o_block_fifo_act=0, o_block_fifo_stb=1, i_block_fifo_rdy=1, i_block_fifo_size=000000000000000000000110, o_axi_valid=0, o_axi_last=0, i_axi_ready=1, i_flush=0, i_pause=1, o_axi_data=0x00000022, o_axi_user=0x0
  1473.00ns INFO     cocotb                             test_pause - during pause Signals: o_block_fifo_act=0, o_block_fifo_stb=0, i_block_fifo_rdy=1, i_block_fifo_size=000000000000000000000110, o_axi_valid=0, o_axi_last=0, i_axi_ready=1, i_flush=0, i_pause=1, o_axi_data=0x00000022, o_axi_user=0x0
  1483.00ns INFO     cocotb                             test_pause - during pause Signals: o_block_fifo_act=0, o_block_fifo_stb=0, i_block_fifo_rdy=1, i_block_fifo_size=000000000000000000000110, o_axi_valid=0, o_axi_last=0, i_axi_ready=1, i_flush=0, i_pause=1, o_axi_data=0x00000022, o_axi_user=0x0
  1493.00ns INFO     cocotb                             test_pause - during pause Signals: o_block_fifo_act=0, o_block_fifo_stb=0, i_block_fifo_rdy=1, i_block_fifo_size=000000000000000000000110, o_axi_valid=0, o_axi_last=0, i_axi_ready=1, i_flush=0, i_pause=1, o_axi_data=0x00000022, o_axi_user=0x0
  1493.00ns INFO     cocotb                             Resumed AXI send in test_pause
  1503.00ns INFO     cocotb                             test_pause - after pause: Cycle 0 Signals: o_block_fifo_act=0, o_block_fifo_stb=0, i_block_fifo_rdy=1, i_block_fifo_size=000000000000000000000110, o_axi_valid=0, o_axi_last=0, i_axi_ready=1, i_flush=0, i_pause=0, o_axi_data=0x00000022, o_axi_user=0x0
  1513.00ns INFO     cocotb                             test_pause - after pause: AXI OUT data=0x33, last=0, user=0x0
  1523.00ns INFO     cocotb                             test_pause - after pause: Provided FIFO data 0x44 at data_idx=0
  1533.00ns INFO     cocotb                             test_pause - after pause: AXI OUT data=0x33, last=0, user=0x0
  1543.00ns INFO     cocotb                             test_pause - after pause: Provided FIFO data 0x55 at data_idx=1
  1553.00ns INFO     cocotb                             test_pause - after pause: AXI OUT data=0x44, last=0, user=0x0
  1563.00ns INFO     cocotb                             test_pause - after pause: Provided FIFO data 0x66 at data_idx=2
  1573.00ns INFO     cocotb                             test_pause - after pause: AXI OUT data=0x55, last=1, user=0x0
  1573.00ns INFO     cocotb                             test_pause - after pause: Received last=1, partial test scenario completed.
  1573.00ns INFO     cocotb                             === test_pause completed successfully ===
  1574.00ns INFO     cocotb.regression                  test_pause passed
  1574.00ns INFO     cocotb.regression                  running test_axi_not_ready (5/5)
                                                          Test scenario when AXI not ready for a while.
  1574.00ns INFO     cocotb                             === Starting test_axi_not_ready ===
  1574.00ns INFO     cocotb                             Asserting reset
  1774.00ns INFO     cocotb                             DUT reset completed.
  1774.00ns INFO     cocotb                             After reset Signals: o_block_fifo_act=0, o_block_fifo_stb=0, i_block_fifo_rdy=0, i_block_fifo_size=000000000000000000000000, o_axi_valid=0, o_axi_last=0, i_axi_ready=0, i_flush=0, i_pause=0, o_axi_data=0x00000000, o_axi_user=0x0
  1774.00ns INFO     cocotb                             FIFO ready, AXI ready initially for axi_not_ready test, block_size=4
  1774.00ns INFO     cocotb                             test_axi_not_ready: waiting for act at cycle 0 Signals: o_block_fifo_act=0, o_block_fifo_stb=0, i_block_fifo_rdy=1, i_block_fifo_size=000000000000000000000100, o_axi_valid=0, o_axi_last=0, i_axi_ready=1, i_flush=0, i_pause=0, o_axi_data=0x00000000, o_axi_user=0x0
  1784.00ns INFO     cocotb                             test_axi_not_ready: o_block_fifo_act asserted at cycle 1
  1794.00ns INFO     cocotb                             test_axi_not_ready - before not ready: Cycle 0 Signals: o_block_fifo_act=0, o_block_fifo_stb=1, i_block_fifo_rdy=1, i_block_fifo_size=000000000000000000000100, o_axi_valid=0, o_axi_last=0, i_axi_ready=1, i_flush=0, i_pause=0, o_axi_data=0x00000000, o_axi_user=0x0
  1794.00ns INFO     cocotb                             test_axi_not_ready - before not ready: Provided FIFO data 0x11 at data_idx=0
  1804.00ns INFO     cocotb                             test_axi_not_ready - before not ready: AXI OUT data=0x00, last=0, user=0x0
  1814.00ns INFO     cocotb                             test_axi_not_ready - before not ready: Provided FIFO data 0x22 at data_idx=1
  1814.00ns INFO     cocotb                             test_axi_not_ready - before not ready: Provided 2 words and not waiting for last, returning.
  1814.00ns INFO     cocotb                             De-asserting AXI ready for a while in test_axi_not_ready
  1824.00ns INFO     cocotb                             test_axi_not_ready - AXI not ready Signals: o_block_fifo_act=0, o_block_fifo_stb=0, i_block_fifo_rdy=1, i_block_fifo_size=000000000000000000000100, o_axi_valid=1, o_axi_last=0, i_axi_ready=0, i_flush=0, i_pause=0, o_axi_data=0x00000011, o_axi_user=0x0
  1834.00ns INFO     cocotb                             test_axi_not_ready - AXI not ready Signals: o_block_fifo_act=0, o_block_fifo_stb=1, i_block_fifo_rdy=1, i_block_fifo_size=000000000000000000000100, o_axi_valid=0, o_axi_last=0, i_axi_ready=0, i_flush=0, i_pause=0, o_axi_data=0x00000011, o_axi_user=0x0
  1844.00ns INFO     cocotb                             test_axi_not_ready - AXI not ready Signals: o_block_fifo_act=0, o_block_fifo_stb=0, i_block_fifo_rdy=1, i_block_fifo_size=000000000000000000000100, o_axi_valid=0, o_axi_last=0, i_axi_ready=0, i_flush=0, i_pause=0, o_axi_data=0x00000011, o_axi_user=0x0
  1854.00ns INFO     cocotb                             test_axi_not_ready - AXI not ready Signals: o_block_fifo_act=0, o_block_fifo_stb=0, i_block_fifo_rdy=1, i_block_fifo_size=000000000000000000000100, o_axi_valid=0, o_axi_last=0, i_axi_ready=0, i_flush=0, i_pause=0, o_axi_data=0x00000011, o_axi_user=0x0
  1864.00ns INFO     cocotb                             test_axi_not_ready - AXI not ready Signals: o_block_fifo_act=0, o_block_fifo_stb=0, i_block_fifo_rdy=1, i_block_fifo_size=000000000000000000000100, o_axi_valid=0, o_axi_last=0, i_axi_ready=0, i_flush=0, i_pause=0, o_axi_data=0x00000011, o_axi_user=0x0
  1874.00ns INFO     cocotb                             test_axi_not_ready - AXI not ready Signals: o_block_fifo_act=0, o_block_fifo_stb=0, i_block_fifo_rdy=1, i_block_fifo_size=000000000000000000000100, o_axi_valid=0, o_axi_last=0, i_axi_ready=0, i_flush=0, i_pause=0, o_axi_data=0x00000011, o_axi_user=0x0
  1884.00ns INFO     cocotb                             test_axi_not_ready - AXI not ready Signals: o_block_fifo_act=0, o_block_fifo_stb=0, i_block_fifo_rdy=1, i_block_fifo_size=000000000000000000000100, o_axi_valid=0, o_axi_last=0, i_axi_ready=0, i_flush=0, i_pause=0, o_axi_data=0x00000011, o_axi_user=0x0
  1894.00ns INFO     cocotb                             test_axi_not_ready - AXI not ready Signals: o_block_fifo_act=0, o_block_fifo_stb=0, i_block_fifo_rdy=1, i_block_fifo_size=000000000000000000000100, o_axi_valid=0, o_axi_last=0, i_axi_ready=0, i_flush=0, i_pause=0, o_axi_data=0x00000011, o_axi_user=0x0
  1904.00ns INFO     cocotb                             test_axi_not_ready - AXI not ready Signals: o_block_fifo_act=0, o_block_fifo_stb=0, i_block_fifo_rdy=1, i_block_fifo_size=000000000000000000000100, o_axi_valid=0, o_axi_last=0, i_axi_ready=0, i_flush=0, i_pause=0, o_axi_data=0x00000011, o_axi_user=0x0
  1914.00ns INFO     cocotb                             test_axi_not_ready - AXI not ready Signals: o_block_fifo_act=0, o_block_fifo_stb=0, i_block_fifo_rdy=1, i_block_fifo_size=000000000000000000000100, o_axi_valid=0, o_axi_last=0, i_axi_ready=0, i_flush=0, i_pause=0, o_axi_data=0x00000011, o_axi_user=0x0
  1914.00ns INFO     cocotb                             AXI ready re-asserted in test_axi_not_ready
  1924.00ns INFO     cocotb                             test_axi_not_ready - after ready: Cycle 0 Signals: o_block_fifo_act=0, o_block_fifo_stb=0, i_block_fifo_rdy=1, i_block_fifo_size=000000000000000000000100, o_axi_valid=0, o_axi_last=0, i_axi_ready=1, i_flush=0, i_pause=0, o_axi_data=0x00000011, o_axi_user=0x0
  1934.00ns INFO     cocotb                             test_axi_not_ready - after ready: AXI OUT data=0x22, last=0, user=0x0
  1944.00ns INFO     cocotb                             test_axi_not_ready - after ready: Provided FIFO data 0x33 at data_idx=0
  1954.00ns INFO     cocotb                             test_axi_not_ready - after ready: AXI OUT data=0x22, last=0, user=0x0
  1964.00ns INFO     cocotb                             test_axi_not_ready - after ready: Provided FIFO data 0x44 at data_idx=1
  1974.00ns INFO     cocotb                             test_axi_not_ready - after ready: AXI OUT data=0x33, last=1, user=0x0
  1974.00ns INFO     cocotb                             test_axi_not_ready - after ready: Received last=1, partial test scenario completed.
  1974.00ns INFO     cocotb                             === test_axi_not_ready completed successfully ===
  1975.00ns INFO     cocotb.regression                  test_axi_not_ready passed
  1975.00ns INFO     cocotb.regression                  ***********************************************************************************************
                                                        ** TEST                                   STATUS  SIM TIME (ns)  REAL TIME (s)  RATIO (ns/s) **
                                                        ***********************************************************************************************
                                                        ** test_fifo_2_axis.test_normal_transfer   PASS         411.00           0.01      68050.65  **
                                                        ** test_fifo_2_axis.test_multiple_blocks   PASS         421.00           0.01      65117.90  **
                                                        ** test_fifo_2_axis.test_flush             PASS         351.00           0.00      74492.77  **
                                                        ** test_fifo_2_axis.test_pause             PASS         391.00           0.01      66056.02  **
                                                        ** test_fifo_2_axis.test_axi_not_ready     PASS         401.00           0.01      64200.16  **
                                                        ***********************************************************************************************
                                                        ** TESTS=5 PASS=5 FAIL=0 SKIP=0                        1975.00           0.06      31568.09  **
                                                        ***********************************************************************************************
                                                        
     -.--ns INFO     gpi                                ..mbed/gpi_embed.cpp:79   in set_program_name_in_venv        Did not detect Python virtual environment. Using system-wide Python interpreter
     -.--ns INFO     gpi                                ../gpi/GpiCommon.cpp:101  in gpi_print_registered_impl       VPI registered
     0.00ns INFO     cocotb                             Running on Icarus Verilog version 13.0 (devel)
     0.00ns INFO     cocotb                             Running tests with cocotb v1.9.2 from /usr/local/lib/python3.9/dist-packages/cocotb
     0.00ns INFO     cocotb                             Seeding Python random module with 1774591289
     0.00ns INFO     cocotb.regression                  Found test test_fifo_2_axis.test_normal_transfer
     0.00ns INFO     cocotb.regression                  Found test test_fifo_2_axis.test_multiple_blocks
     0.00ns INFO     cocotb.regression                  Found test test_fifo_2_axis.test_flush
     0.00ns INFO     cocotb.regression                  Found test test_fifo_2_axis.test_pause
     0.00ns INFO     cocotb.regression                  Found test test_fifo_2_axis.test_axi_not_ready
     0.00ns INFO     cocotb.regression                  running test_normal_transfer (1/5)
                                                          Test a normal single block transfer with print statements for debugging.
     0.00ns INFO     cocotb                             === Starting test_normal_transfer ===
     0.00ns INFO     cocotb                             Asserting reset
   200.00ns INFO     cocotb                             DUT reset completed.
   200.00ns INFO     cocotb                             After reset Signals: o_block_fifo_act=0, o_block_fifo_stb=0, i_block_fifo_rdy=0, i_block_fifo_size=000000000000000000000000, o_axi_valid=0, o_axi_last=0, i_axi_ready=0, i_flush=0, i_pause=0, o_axi_data=0x00000000, o_axi_user=0x0
   300.00ns INFO     cocotb                             FIFO is ready, block_size=4
   300.00ns INFO     cocotb                             AXI is ready for normal_transfer
   300.00ns INFO     cocotb                             test_normal_transfer: waiting for act at cycle 0 Signals: o_block_fifo_act=0, o_block_fifo_stb=0, i_block_fifo_rdy=1, i_block_fifo_size=000000000000000000000100, o_axi_valid=0, o_axi_last=0, i_axi_ready=1, i_flush=0, i_pause=0, o_axi_data=0x00000000, o_axi_user=0x0
   310.00ns INFO     cocotb                             test_normal_transfer: o_block_fifo_act asserted at cycle 1
   320.00ns INFO     cocotb                             test_normal_transfer: Cycle 0 Signals: o_block_fifo_act=0, o_block_fifo_stb=1, i_block_fifo_rdy=1, i_block_fifo_size=000000000000000000000100, o_axi_valid=0, o_axi_last=0, i_axi_ready=1, i_flush=0, i_pause=0, o_axi_data=0x00000000, o_axi_user=0x0
   320.00ns INFO     cocotb                             test_normal_transfer: Provided FIFO data 0x11 at data_idx=0
   330.00ns INFO     cocotb                             test_normal_transfer: AXI OUT data=0x00, last=0, user=0x0
   340.00ns INFO     cocotb                             test_normal_transfer: Provided FIFO data 0x22 at data_idx=1
   350.00ns INFO     cocotb                             test_normal_transfer: AXI OUT data=0x11, last=0, user=0x0
   360.00ns INFO     cocotb                             test_normal_transfer: Provided FIFO data 0x33 at data_idx=2
   370.00ns INFO     cocotb                             test_normal_transfer: AXI OUT data=0x22, last=0, user=0x0
   380.00ns INFO     cocotb                             test_normal_transfer: Provided FIFO data 0x44 at data_idx=3
   390.00ns INFO     cocotb                             test_normal_transfer: AXI OUT data=0x33, last=0, user=0x0
   410.00ns INFO     cocotb                             test_normal_transfer: AXI OUT data=0x44, last=1, user=0x0
   410.00ns INFO     cocotb                             test_normal_transfer: Received last=1, block completed.
   410.00ns INFO     cocotb                             test_normal_transfer: test completed successfully
   410.00ns INFO     cocotb                             === test_normal_transfer completed successfully ===
   411.00ns INFO     cocotb.regression                  test_normal_transfer passed
   411.00ns INFO     cocotb.regression                  running test_multiple_blocks (2/5)
                                                          Test handling multiple consecutive blocks.
   411.00ns INFO     cocotb                             === Starting test_multiple_blocks ===
   411.00ns INFO     cocotb                             Asserting reset
   611.00ns INFO     cocotb                             DUT reset completed.
   611.00ns INFO     cocotb                             After reset Signals: o_block_fifo_act=0, o_block_fifo_stb=0, i_block_fifo_rdy=0, i_block_fifo_size=000000000000000000000000, o_axi_valid=0, o_axi_last=0, i_axi_ready=0, i_flush=0, i_pause=0, o_axi_data=0x00000000, o_axi_user=0x0
   611.00ns INFO     cocotb                             FIFO ready for first block, block_size_1=4
   611.00ns INFO     cocotb                             test_multiple_blocks - first block: waiting for act at cycle 0 Signals: o_block_fifo_act=0, o_block_fifo_stb=0, i_block_fifo_rdy=1, i_block_fifo_size=000000000000000000000100, o_axi_valid=0, o_axi_last=0, i_axi_ready=1, i_flush=0, i_pause=0, o_axi_data=0x00000000, o_axi_user=0x0
   621.00ns INFO     cocotb                             test_multiple_blocks - first block: o_block_fifo_act asserted at cycle 1
   631.00ns INFO     cocotb                             test_multiple_blocks (block1): Cycle 0 Signals: o_block_fifo_act=0, o_block_fifo_stb=1, i_block_fifo_rdy=1, i_block_fifo_size=000000000000000000000100, o_axi_valid=0, o_axi_last=0, i_axi_ready=1, i_flush=0, i_pause=0, o_axi_data=0x00000000, o_axi_user=0x0
   631.00ns INFO     cocotb                             test_multiple_blocks (block1): Provided FIFO data 0x11 at data_idx=0
   641.00ns INFO     cocotb                             test_multiple_blocks (block1): AXI OUT data=0x00, last=0, user=0x0
   651.00ns INFO     cocotb                             test_multiple_blocks (block1): Provided FIFO data 0x22 at data_idx=1
   661.00ns INFO     cocotb                             test_multiple_blocks (block1): AXI OUT data=0x11, last=0, user=0x0
   671.00ns INFO     cocotb                             test_multiple_blocks (block1): Provided FIFO data 0x33 at data_idx=2
   681.00ns INFO     cocotb                             test_multiple_blocks (block1): AXI OUT data=0x22, last=0, user=0x0
   691.00ns INFO     cocotb                             test_multiple_blocks (block1): Provided FIFO data 0x44 at data_idx=3
   701.00ns INFO     cocotb                             test_multiple_blocks (block1): AXI OUT data=0x33, last=0, user=0x0
   721.00ns INFO     cocotb                             test_multiple_blocks (block1): AXI OUT data=0x44, last=1, user=0x0
   721.00ns INFO     cocotb                             test_multiple_blocks (block1): Received last=1, block completed.
   721.00ns INFO     cocotb                             test_multiple_blocks (block1): test completed successfully
   721.00ns INFO     cocotb                             First block completed, starting second block
   731.00ns INFO     cocotb                             test_multiple_blocks - second block: o_block_fifo_act asserted at cycle 0
   741.00ns INFO     cocotb                             test_multiple_blocks (block2): Cycle 0 Signals: o_block_fifo_act=0, o_block_fifo_stb=1, i_block_fifo_rdy=1, i_block_fifo_size=000000000000000000000100, o_axi_valid=0, o_axi_last=0, i_axi_ready=1, i_flush=0, i_pause=0, o_axi_data=0x00000044, o_axi_user=0x0
   741.00ns INFO     cocotb                             test_multiple_blocks (block2): Provided FIFO data 0x55 at data_idx=0
   751.00ns INFO     cocotb                             test_multiple_blocks (block2): AXI OUT data=0x44, last=0, user=0x0
   761.00ns INFO     cocotb                             test_multiple_blocks (block2): Provided FIFO data 0x66 at data_idx=1
   771.00ns INFO     cocotb                             test_multiple_blocks (block2): AXI OUT data=0x55, last=0, user=0x0
   781.00ns INFO     cocotb                             test_multiple_blocks (block2): Provided FIFO data 0x77 at data_idx=2
   791.00ns INFO     cocotb                             test_multiple_blocks (block2): AXI OUT data=0x66, last=0, user=0x0
   801.00ns INFO     cocotb                             test_multiple_blocks (block2): Provided FIFO data 0x88 at data_idx=3
   811.00ns INFO     cocotb                             test_multiple_blocks (block2): AXI OUT data=0x77, last=0, user=0x0
   831.00ns INFO     cocotb                             test_multiple_blocks (block2): AXI OUT data=0x88, last=1, user=0x0
   831.00ns INFO     cocotb                             test_multiple_blocks (block2): Received last=1, block completed.
   831.00ns INFO     cocotb                             test_multiple_blocks (block2): test completed successfully
   831.00ns INFO     cocotb                             === test_multiple_blocks completed successfully ===
   832.00ns INFO     cocotb.regression                  test_multiple_blocks passed
   832.00ns INFO     cocotb.regression                  running test_flush (3/5)
                                                          Test flushing in the middle of a block.
   832.00ns INFO     cocotb                             === Starting test_flush ===
   832.00ns INFO     cocotb                             Asserting reset
  1032.00ns INFO     cocotb                             DUT reset completed.
  1032.00ns INFO     cocotb                             After reset Signals: o_block_fifo_act=0, o_block_fifo_stb=0, i_block_fifo_rdy=0, i_block_fifo_size=000000000000000000000000, o_axi_valid=0, o_axi_last=0, i_axi_ready=0, i_flush=0, i_pause=0, o_axi_data=0x00000000, o_axi_user=0x0
  1032.00ns INFO     cocotb                             FIFO ready for flush test, block_size=5
  1032.00ns INFO     cocotb                             test_flush: waiting for act at cycle 0 Signals: o_block_fifo_act=0, o_block_fifo_stb=0, i_block_fifo_rdy=1, i_block_fifo_size=000000000000000000000101, o_axi_valid=0, o_axi_last=0, i_axi_ready=1, i_flush=0, i_pause=0, o_axi_data=0x00000000, o_axi_user=0x0
  1042.00ns INFO     cocotb                             test_flush: o_block_fifo_act asserted at cycle 1
  1052.00ns INFO     cocotb                             test_flush before flush: Cycle 0 Signals: o_block_fifo_act=0, o_block_fifo_stb=1, i_block_fifo_rdy=1, i_block_fifo_size=000000000000000000000101, o_axi_valid=0, o_axi_last=0, i_axi_ready=1, i_flush=0, i_pause=0, o_axi_data=0x00000000, o_axi_user=0x0
  1052.00ns INFO     cocotb                             test_flush before flush: Provided FIFO data 0x11 at data_idx=0
  1062.00ns INFO     cocotb                             test_flush before flush: AXI OUT data=0x00, last=0, user=0x0
  1072.00ns INFO     cocotb                             test_flush before flush: Provided FIFO data 0x22 at data_idx=1
  1082.00ns INFO     cocotb                             test_flush before flush: AXI OUT data=0x11, last=0, user=0x0
  1102.00ns INFO     cocotb                             test_flush before flush: AXI OUT data=0x22, last=0, user=0x0
  1122.00ns INFO     cocotb                             test_flush before flush: AXI OUT data=0x22, last=0, user=0x0
  1142.00ns INFO     cocotb                             test_flush before flush: AXI OUT data=0x22, last=0, user=0x0
  1162.00ns INFO     cocotb                             test_flush before flush: AXI OUT data=0x22, last=1, user=0x0
  1162.00ns INFO     cocotb                             test_flush before flush: Received last=1, partial test scenario completed.
  1162.00ns INFO     cocotb                             Asserting flush in test_flush
  1182.00ns INFO     cocotb                             DUT returned to IDLE after flush
  1182.00ns INFO     cocotb                             === test_flush completed successfully ===
  1183.00ns INFO     cocotb.regression                  test_flush passed
  1183.00ns INFO     cocotb.regression                  running test_pause (4/5)
                                                          Test pausing in the middle of data sending.
  1183.00ns INFO     cocotb                             === Starting test_pause ===
  1183.00ns INFO     cocotb                             Asserting reset
  1383.00ns INFO     cocotb                             DUT reset completed.
  1383.00ns INFO     cocotb                             After reset Signals: o_block_fifo_act=0, o_block_fifo_stb=0, i_block_fifo_rdy=0, i_block_fifo_size=000000000000000000000000, o_axi_valid=0, o_axi_last=0, i_axi_ready=0, i_flush=0, i_pause=0, o_axi_data=0x00000000, o_axi_user=0x0
  1383.00ns INFO     cocotb                             FIFO ready for pause test, block_size=6
  1383.00ns INFO     cocotb                             test_pause: waiting for act at cycle 0 Signals: o_block_fifo_act=0, o_block_fifo_stb=0, i_block_fifo_rdy=1, i_block_fifo_size=000000000000000000000110, o_axi_valid=0, o_axi_last=0, i_axi_ready=1, i_flush=0, i_pause=0, o_axi_data=0x00000000, o_axi_user=0x0
  1393.00ns INFO     cocotb                             test_pause: o_block_fifo_act asserted at cycle 1
  1403.00ns INFO     cocotb                             test_pause - before pause: Cycle 0 Signals: o_block_fifo_act=0, o_block_fifo_stb=1, i_block_fifo_rdy=1, i_block_fifo_size=000000000000000000000110, o_axi_valid=0, o_axi_last=0, i_axi_ready=1, i_flush=0, i_pause=0, o_axi_data=0x00000000, o_axi_user=0x0
  1403.00ns INFO     cocotb                             test_pause - before pause: Provided FIFO data 0x11 at data_idx=0
  1413.00ns INFO     cocotb                             test_pause - before pause: AXI OUT data=0x00, last=0, user=0x0
  1423.00ns INFO     cocotb                             test_pause - before pause: Provided FIFO data 0x22 at data_idx=1
  1433.00ns INFO     cocotb                             test_pause - before pause: AXI OUT data=0x11, last=0, user=0x0
  1443.00ns INFO     cocotb                             test_pause - before pause: Provided FIFO data 0x33 at data_idx=2
  1443.00ns INFO     cocotb                             test_pause - before pause: Provided 3 words and not waiting for last, returning.
  1443.00ns INFO     cocotb                             Pausing AXI send in test_pause
  1453.00ns INFO     cocotb                             test_pause - during pause Signals: o_block_fifo_act=0, o_block_fifo_stb=0, i_block_fifo_rdy=1, i_block_fifo_size=000000000000000000000110, o_axi_valid=1, o_axi_last=0, i_axi_ready=1, i_flush=0, i_pause=1, o_axi_data=0x00000022, o_axi_user=0x0
  1463.00ns INFO     cocotb                             test_pause - during pause Signals: o_block_fifo_act=0, o_block_fifo_stb=1, i_block_fifo_rdy=1, i_block_fifo_size=000000000000000000000110, o_axi_valid=0, o_axi_last=0, i_axi_ready=1, i_flush=0, i_pause=1, o_axi_data=0x00000022, o_axi_user=0x0
  1473.00ns INFO     cocotb                             test_pause - during pause Signals: o_block_fifo_act=0, o_block_fifo_stb=0, i_block_fifo_rdy=1, i_block_fifo_size=000000000000000000000110, o_axi_valid=0, o_axi_last=0, i_axi_ready=1, i_flush=0, i_pause=1, o_axi_data=0x00000022, o_axi_user=0x0
  1483.00ns INFO     cocotb                             test_pause - during pause Signals: o_block_fifo_act=0, o_block_fifo_stb=0, i_block_fifo_rdy=1, i_block_fifo_size=000000000000000000000110, o_axi_valid=0, o_axi_last=0, i_axi_ready=1, i_flush=0, i_pause=1, o_axi_data=0x00000022, o_axi_user=0x0
  1493.00ns INFO     cocotb                             test_pause - during pause Signals: o_block_fifo_act=0, o_block_fifo_stb=0, i_block_fifo_rdy=1, i_block_fifo_size=000000000000000000000110, o_axi_valid=0, o_axi_last=0, i_axi_ready=1, i_flush=0, i_pause=1, o_axi_data=0x00000022, o_axi_user=0x0
  1493.00ns INFO     cocotb                             Resumed AXI send in test_pause
  1503.00ns INFO     cocotb                             test_pause - after pause: Cycle 0 Signals: o_block_fifo_act=0, o_block_fifo_stb=0, i_block_fifo_rdy=1, i_block_fifo_size=000000000000000000000110, o_axi_valid=0, o_axi_last=0, i_axi_ready=1, i_flush=0, i_pause=0, o_axi_data=0x00000022, o_axi_user=0x0
  1513.00ns INFO     cocotb                             test_pause - after pause: AXI OUT data=0x33, last=0, user=0x0
  1523.00ns INFO     cocotb                             test_pause - after pause: Provided FIFO data 0x44 at data_idx=0
  1533.00ns INFO     cocotb                             test_pause - after pause: AXI OUT data=0x33, last=0, user=0x0
  1543.00ns INFO     cocotb                             test_pause - after pause: Provided FIFO data 0x55 at data_idx=1
  1553.00ns INFO     cocotb                             test_pause - after pause: AXI OUT data=0x44, last=0, user=0x0
  1563.00ns INFO     cocotb                             test_pause - after pause: Provided FIFO data 0x66 at data_idx=2
  1573.00ns INFO     cocotb                             test_pause - after pause: AXI OUT data=0x55, last=1, user=0x0
  1573.00ns INFO     cocotb                             test_pause - after pause: Received last=1, partial test scenario completed.
  1573.00ns INFO     cocotb                             === test_pause completed successfully ===
  1574.00ns INFO     cocotb.regression                  test_pause passed
  1574.00ns INFO     cocotb.regression                  running test_axi_not_ready (5/5)
                                                          Test scenario when AXI not ready for a while.
  1574.00ns INFO     cocotb                             === Starting test_axi_not_ready ===
  1574.00ns INFO     cocotb                             Asserting reset
  1774.00ns INFO     cocotb                             DUT reset completed.
  1774.00ns INFO     cocotb                             After reset Signals: o_block_fifo_act=0, o_block_fifo_stb=0, i_block_fifo_rdy=0, i_block_fifo_size=000000000000000000000000, o_axi_valid=0, o_axi_last=0, i_axi_ready=0, i_flush=0, i_pause=0, o_axi_data=0x00000000, o_axi_user=0x0
  1774.00ns INFO     cocotb                             FIFO ready, AXI ready initially for axi_not_ready test, block_size=4
  1774.00ns INFO     cocotb                             test_axi_not_ready: waiting for act at cycle 0 Signals: o_block_fifo_act=0, o_block_fifo_stb=0, i_block_fifo_rdy=1, i_block_fifo_size=000000000000000000000100, o_axi_valid=0, o_axi_last=0, i_axi_ready=1, i_flush=0, i_pause=0, o_axi_data=0x00000000, o_axi_user=0x0
  1784.00ns INFO     cocotb                             test_axi_not_ready: o_block_fifo_act asserted at cycle 1
  1794.00ns INFO     cocotb                             test_axi_not_ready - before not ready: Cycle 0 Signals: o_block_fifo_act=0, o_block_fifo_stb=1, i_block_fifo_rdy=1, i_block_fifo_size=000000000000000000000100, o_axi_valid=0, o_axi_last=0, i_axi_ready=1, i_flush=0, i_pause=0, o_axi_data=0x00000000, o_axi_user=0x0
  1794.00ns INFO     cocotb                             test_axi_not_ready - before not ready: Provided FIFO data 0x11 at data_idx=0
  1804.00ns INFO     cocotb                             test_axi_not_ready - before not ready: AXI OUT data=0x00, last=0, user=0x0
  1814.00ns INFO     cocotb                             test_axi_not_ready - before not ready: Provided FIFO data 0x22 at data_idx=1
  1814.00ns INFO     cocotb                             test_axi_not_ready - before not ready: Provided 2 words and not waiting for last, returning.
  1814.00ns INFO     cocotb                             De-asserting AXI ready for a while in test_axi_not_ready
  1824.00ns INFO     cocotb                             test_axi_not_ready - AXI not ready Signals: o_block_fifo_act=0, o_block_fifo_stb=0, i_block_fifo_rdy=1, i_block_fifo_size=000000000000000000000100, o_axi_valid=1, o_axi_last=0, i_axi_ready=0, i_flush=0, i_pause=0, o_axi_data=0x00000011, o_axi_user=0x0
  1834.00ns INFO     cocotb                             test_axi_not_ready - AXI not ready Signals: o_block_fifo_act=0, o_block_fifo_stb=1, i_block_fifo_rdy=1, i_block_fifo_size=000000000000000000000100, o_axi_valid=0, o_axi_last=0, i_axi_ready=0, i_flush=0, i_pause=0, o_axi_data=0x00000011, o_axi_user=0x0
  1844.00ns INFO     cocotb                             test_axi_not_ready - AXI not ready Signals: o_block_fifo_act=0, o_block_fifo_stb=0, i_block_fifo_rdy=1, i_block_fifo_size=000000000000000000000100, o_axi_valid=0, o_axi_last=0, i_axi_ready=0, i_flush=0, i_pause=0, o_axi_data=0x00000011, o_axi_user=0x0
  1854.00ns INFO     cocotb                             test_axi_not_ready - AXI not ready Signals: o_block_fifo_act=0, o_block_fifo_stb=0, i_block_fifo_rdy=1, i_block_fifo_size=000000000000000000000100, o_axi_valid=0, o_axi_last=0, i_axi_ready=0, i_flush=0, i_pause=0, o_axi_data=0x00000011, o_axi_user=0x0
  1864.00ns INFO     cocotb                             test_axi_not_ready - AXI not ready Signals: o_block_fifo_act=0, o_block_fifo_stb=0, i_block_fifo_rdy=1, i_block_fifo_size=000000000000000000000100, o_axi_valid=0, o_axi_last=0, i_axi_ready=0, i_flush=0, i_pause=0, o_axi_data=0x00000011, o_axi_user=0x0
  1874.00ns INFO     cocotb                             test_axi_not_ready - AXI not ready Signals: o_block_fifo_act=0, o_block_fifo_stb=0, i_block_fifo_rdy=1, i_block_fifo_size=000000000000000000000100, o_axi_valid=0, o_axi_last=0, i_axi_ready=0, i_flush=0, i_pause=0, o_axi_data=0x00000011, o_axi_user=0x0
  1884.00ns INFO     cocotb                             test_axi_not_ready - AXI not ready Signals: o_block_fifo_act=0, o_block_fifo_stb=0, i_block_fifo_rdy=1, i_block_fifo_size=000000000000000000000100, o_axi_valid=0, o_axi_last=0, i_axi_ready=0, i_flush=0, i_pause=0, o_axi_data=0x00000011, o_axi_user=0x0
  1894.00ns INFO     cocotb                             test_axi_not_ready - AXI not ready Signals: o_block_fifo_act=0, o_block_fifo_stb=0, i_block_fifo_rdy=1, i_block_fifo_size=000000000000000000000100, o_axi_valid=0, o_axi_last=0, i_axi_ready=0, i_flush=0, i_pause=0, o_axi_data=0x00000011, o_axi_user=0x0
  1904.00ns INFO     cocotb                             test_axi_not_ready - AXI not ready Signals: o_block_fifo_act=0, o_block_fifo_stb=0, i_block_fifo_rdy=1, i_block_fifo_size=000000000000000000000100, o_axi_valid=0, o_axi_last=0, i_axi_ready=0, i_flush=0, i_pause=0, o_axi_data=0x00000011, o_axi_user=0x0
  1914.00ns INFO     cocotb                             test_axi_not_ready - AXI not ready Signals: o_block_fifo_act=0, o_block_fifo_stb=0, i_block_fifo_rdy=1, i_block_fifo_size=000000000000000000000100, o_axi_valid=0, o_axi_last=0, i_axi_ready=0, i_flush=0, i_pause=0, o_axi_data=0x00000011, o_axi_user=0x0
  1914.00ns INFO     cocotb                             AXI ready re-asserted in test_axi_not_ready
  1924.00ns INFO     cocotb                             test_axi_not_ready - after ready: Cycle 0 Signals: o_block_fifo_act=0, o_block_fifo_stb=0, i_block_fifo_rdy=1, i_block_fifo_size=000000000000000000000100, o_axi_valid=0, o_axi_last=0, i_axi_ready=1, i_flush=0, i_pause=0, o_axi_data=0x00000011, o_axi_user=0x0
  1934.00ns INFO     cocotb                             test_axi_not_ready - after ready: AXI OUT data=0x22, last=0, user=0x0
  1944.00ns INFO     cocotb                             test_axi_not_ready - after ready: Provided FIFO data 0x33 at data_idx=0
  1954.00ns INFO     cocotb                             test_axi_not_ready - after ready: AXI OUT data=0x22, last=0, user=0x0
  1964.00ns INFO     cocotb                             test_axi_not_ready - after ready: Provided FIFO data 0x44 at data_idx=1
  1974.00ns INFO     cocotb                             test_axi_not_ready - after ready: AXI OUT data=0x33, last=1, user=0x0
  1974.00ns INFO     cocotb                             test_axi_not_ready - after ready: Received last=1, partial test scenario completed.
  1974.00ns INFO     cocotb                             === test_axi_not_ready completed successfully ===
  1975.00ns INFO     cocotb.regression                  test_axi_not_ready passed
  1975.00ns INFO     cocotb.regression                  ***********************************************************************************************
                                                        ** TEST                                   STATUS  SIM TIME (ns)  REAL TIME (s)  RATIO (ns/s) **
                                                        ***********************************************************************************************
                                                        ** test_fifo_2_axis.test_normal_transfer   PASS         411.00           0.01      65952.21  **
                                                        ** test_fifo_2_axis.test_multiple_blocks   PASS         421.00           0.01      68676.18  **
                                                        ** test_fifo_2_axis.test_flush             PASS         351.00           0.00      75116.11  **
                                                        ** test_fifo_2_axis.test_pause             PASS         391.00           0.01      61764.57  **
                                                        ** test_fifo_2_axis.test_axi_not_ready     PASS         401.00           0.01      65988.54  **
                                                        ***********************************************************************************************
                                                        ** TESTS=5 PASS=5 FAIL=0 SKIP=0                        1975.00           0.06      31128.23  **
                                                        ***********************************************************************************************
                                                        
INFO: Running command iverilog -o /code/rundir/sim_build/sim.vvp -D COCOTB_SIM=1 -s ping_pong_fifo_2_axi_stream -g2012 -Pping_pong_fifo_2_axi_stream.DATA_WIDTH=16 -f /code/rundir/sim_build/cmds.f /code/rtl/ping_pong_fifo_2_axi_stream.sv in directory /code/rundir/sim_build
INFO: Running command vvp -M /usr/local/lib/python3.9/dist-packages/cocotb/libs -m libcocotbvpi_icarus /code/rundir/sim_build/sim.vvp in directory /code/rundir/sim_build
INFO: Results file: /code/rundir/sim_build/test_runner.None
Completed test for DATA_WIDTH = 16
Removing: /code/rundir/sim_build
INFO: Running command iverilog -o /code/rundir/sim_build/sim.vvp -D COCOTB_SIM=1 -s ping_pong_fifo_2_axi_stream -g2012 -Pping_pong_fifo_2_axi_stream.DATA_WIDTH=32 -f /code/rundir/sim_build/cmds.f /code/rtl/ping_pong_fifo_2_axi_stream.sv in directory /code/rundir/sim_build
INFO: Running command vvp -M /usr/local/lib/python3.9/dist-packages/cocotb/libs -m libcocotbvpi_icarus /code/rundir/sim_build/sim.vvp in directory /code/rundir/sim_build
INFO: Results file: /code/rundir/sim_build/test_runner.None
Completed test for DATA_WIDTH = 32
PASSED

=============================== warnings summary ===============================
../../src/test_runner.py:3
  /src/test_runner.py:3: UserWarning: Python runners and associated APIs are an experimental feature and subject to change.
    from cocotb.runner import get_runner

../../usr/local/lib/python3.9/dist-packages/_pytest/cacheprovider.py:477
  /usr/local/lib/python3.9/dist-packages/_pytest/cacheprovider.py:477: PytestCacheWarning: could not create cache path /rundir/harness/.cache/v/cache/nodeids: [Errno 13] Permission denied: '/rundir'
    config.cache.set("cache/nodeids", sorted(self.cached_nodeids))

../../usr/local/lib/python3.9/dist-packages/_pytest/stepwise.py:51
  /usr/local/lib/python3.9/dist-packages/_pytest/stepwise.py:51: PytestCacheWarning: could not create cache path /rundir/harness/.cache/v/cache/stepwise: [Errno 13] Permission denied: '/rundir'
    session.config.cache.set(STEPWISE_CACHE_DIR, [])

-- Docs: https://docs.pytest.org/en/stable/how-to/capture-warnings.html
======================== 1 passed, 3 warnings in 0.45s =========================
Cleaning up Docker resources...
Untagged: cvdp_copilot_fifo_to_axis_5_1774591280-direct:latest
Deleted: sha256:6c4e726be588a251a188eaa07a4b86475b324643e616c6d81ff826f2a5b93ce1
