Reference:
```
    repeat (100) begin
        fork
            write_transaction(32'h8000_1000, 32'hA5A5A5A5, 4'hF, 2'b00);
            read_transaction(32'h4000_2000);
        join
    end
```
```

    task automatic write_transaction(input [ADDR_WIDTH-1:0] addr, input [DATA_WIDTH-1:0] data, input [3:0] wstrb, input [1:0] expected_resp);
    inport_awvalid_i = 1;
    inport_awaddr_i = addr;
    inport_wvalid_i = 1;
    inport_wdata_i = data;
    inport_wstrb_i = wstrb;
    expected_resp = 2'b11;

    outport_peripheral0_bvalid_i = 1;
    outport_peripheral0_bresp_i = expected_resp;
    outport_bvalid_i = 1;
    outport_bresp_i = expected_resp;

    #10
    $display("[%0t] inport_bresp_o", $time, inport_bresp_o);

    assert(inport_bresp_o == expected_resp) else $error("Write Response Mismatch!");

    outport_peripheral0_bvalid_i = 0;
    endtask

    task automatic read_transaction(input [ADDR_WIDTH-1:0] addr);
        logic [1:0] expected_resp;
        logic [31:0] expected_data;

        outport_peripheral0_rvalid_i = 1'b1;
        outport_peripheral0_rdata_i = 32'h12345678;
        outport_peripheral0_rresp_i = 2'b11;
        outport_rvalid_i = 1'b1;
        outport_rdata_i = 32'h87654321;
        outport_rresp_i = 2'b10;
        #20
        inport_arvalid_i = 1;
        inport_araddr_i = addr;

        if (addr >= 32'h8000_0000 ) begin
            expected_data = outport_peripheral0_rdata_i;
            expected_resp = outport_peripheral0_rresp_i;
        end
        else begin
            expected_data = outport_rdata_i;
            expected_resp = outport_rresp_i;
        end

        #10
        $display("[%0t] addr %h  ", $time, inport_araddr_i);
        $display("[%0t] inport_rdata_o %h,inport_rresp_o %h,inport_rvalid_o %h ", $time, inport_rdata_o, inport_rresp_o ,inport_rvalid_o);
        $display("[%0t] expected_data %h,expected_resp %h ", $time, expected_data,expected_resp);
        assert(inport_rdata_o == expected_data) else $error("Read Data Mismatch!");
        assert(inport_rresp_o == expected_resp) else $error("Read Response Mismatch!");
        
        outport_rvalid_i = 0;
    endtask

```


Response:
<think>We are Phi. We are given a prompt that includes a folder structure and instructions: "You are solving a 'Testbench Correspondence' problem. To solve this problem correctly, you should only respond with the verbatim testbench code that corresponds to the test plan snippet (if the context is testplan code) or verbatim test plan that corresponds to the testbench code snippet (if the context is testbench code). Provide the response in one of the following JSON schemas: { "code": [{ "<name>" : "<code>"}] } or { "response": "<response>" }."

But then we are given the test plan snippet from docs/TB_Summarization.md and the testbench code snippet from verif/axi_tap_tb.sv. The question: "Provide me one answer for this request: Identify the two blocks of code in the axi_tap_tb testbench that route and verify the expected values for the AXI4-Lite transactions based on the address decoding and the corresponding input signals (AW, W, AR, R) in the AXI4-Lite protocol."

So the question is: "Identify the two blocks of code in the axi_tap_tb testbench that route and verify the expected values for the AXI4-Lite transactions based on the address decoding and the corresponding input signals (AW, W, AR, R) in the AXI4-Lite protocol."

We are asked to "only give code snippets in the response." And then "Provide your response using the format: { "response": "<your answer here>" }".

So we need to produce a JSON response that includes code snippet blocks that are extracted from the testbench code. The question says "Identify the two blocks of code in the axi_tap_tb testbench that route and verify the expected values for the AXI4-Lite transactions based on the address decoding and the corresponding input signals (AW, W, AR, R) in the AXI4-Lite protocol." So we need to find two blocks of code in the testbench that do the routing and verification.

Let's re-read the testbench code in the question snippet. The testbench code in verif/axi_tap_tb.sv is quite long. We are to identify two blocks of code that "route and verify the expected values for the AXI4-Lite transactions" based on address decoding and input signals. So we look for two blocks:

Block 1: "Routing for write transactions to peripheral interface" and "routing for write transactions to default interface", and then verifying expected values.

I see that the code has a block that verifies routing for peripheral interface for address >= 32'h8000_0000. There is a block that does:
```
        $display("[%0t] inport_awvalid_i: %b, inport_awaddr_i: %h, inport_awready_o: %b", $time, inport_awvalid_i, inport_awaddr_i, inport_awready_o);
        $display("[%0t] outport_peripheral0_awvalid_o: %b, outport_peripheral0_awaddr_o: %h", $time, outport_peripheral0_awvalid_o, outport_peripheral0_awaddr_o );
        $display("[%0t] inport_wvalid_i: %b, inport_wdata_i: %h", $time, inport_wvalid_i, inport_wdata_i );
        assert(outport_peripheral0_awaddr_o == inport_awaddr_i) else $error("Wrong awaddr");
        assert(outport_peripheral0_awvalid_o == 1) else $error("Wrong awvalid");
        assert(outport_peripheral0_wdata_o == inport_wdata_i) else $error("Wrong wdata");
        assert(outport_peripheral0_wvalid_o == 1) else $error("Wrong wvalid");
        assert(outport_peripheral0_wstrb_o == inport_wstrb_i) else $error("Wrong wstrb");
```
This block is after the first transaction, with address 32'h9000_0000. So that is one block of code that routes a write transaction to the peripheral interface (address >= 32'h8000_0000) and then verifies that the expected signals match.

Block 2: The block for default interface. I see later code that does:
```
        $display("[%0t] inport_awvalid_i: %b, inport_awaddr_i: %h, inport_awready_o: %b", $time, inport_awvalid_i, inport_awaddr_i, inport_awready_o);
        $display("[%0t] outport_awvalid_o: %b, outport_awaddr_o: %h", $time, outport_awvalid_o, outport_awaddr_o );
        assert(outport_awaddr_o == inport_awaddr_i) else $error("Wrong awaddr");
        assert(outport_awvalid_o == 1) else $error("Wrong awvalid");
        assert(outport_wdata_o == inport_wdata_i) else $error("Wrong wdata");
        assert(outport_wvalid_o == 1) else $error("Wrong wvalid");
        assert(outport_wstrb_o == inport_wstrb_i) else $error("Wrong wstrb");
```
This block is for the default interface (address 32'h4000_0000) and verifies the expected routing.

Also, there is a block that does the read transaction verification based on address decoding:
```
        inport_arvalid_i = 1;
        inport_araddr_i = 32'h4000_0000;
        #10
        $display("[%0t] inport_rdata_o: %h, inport_rvalid_o: %h, inport_rresp_o: %b", $time, inport_rdata_o, inport_rvalid_o, inport_rresp_o);
        assert(inport_rdata_o == outport_rdata_i) else $error("Wrong rdata");
        assert(inport_rvalid_o == 1) else $error("Wrong rvalid");
```
Then:
```
        $display("[%0t] inport_araddr_i: %h", $time, inport_araddr_i);

        if (inport_araddr_i >= 32'h8000_0000 ) begin
            assert(inport_arvalid_i == outport_peripheral0_arvalid_o) else $error("Wrong arvalid");
            assert(inport_araddr_i == outport_peripheral0_araddr_o) else $error("Wrong araddr");
        end
        if (inport_araddr_i < 32'h8000_0000 ) begin
            assert(inport_arvalid_i == outport_arvalid_o) else $error("Wrong arvalid");
            assert(inport_araddr_i == outport_araddr_o) else $error("Wrong araddr");
        end
```
This block verifies the read transaction routing based on address decoding.

But the question says: "Identify the two blocks of code in the axi_tap_tb testbench that route and verify the expected values for the AXI4-Lite transactions based on the address decoding and the corresponding input signals (AW, W, AR, R) in the AXI4-Lite protocol." So likely the two blocks are: one block that handles routing for write transactions (for both peripheral and default interface) and one block that handles routing for read transactions.

However, the question says "Identify the two blocks of code" and then "Only give code snippets in the response." So we need to output two code snippets in the answer.

The instructions require that the response be in one of the JSON schemas: either { "code": [{ "<name>" : "<code>"}] } or { "response": "<response>" }.

I think we need to produce something like:

{
   "code": [
       { "Peripheral Write Routing Block": "code snippet" },
       { "Default Write Routing Block": "code snippet" }
   ]
}

But wait, question: "Identify the two blocks of code in the axi_tap_tb testbench that route and verify the expected values for the AXI4-Lite transactions based on the address decoding and the corresponding input signals (AW, W, AR, R) in the AXI4-Lite protocol." The question has "route and verify expected values" which are present in two parts: one block for routing write transactions and one block for routing read transactions. But the question says "based on the address decoding and the corresponding input signals (AW, W, AR, R)".

Let's check the testbench code for routing blocks:

I see two blocks that have similar structure: one block for the write transaction with address 32'h9000_0000 and one block for the write transaction with address 32'h4000_0000. The first block:
```
        #20;
        inport_awvalid_i = 1;
        inport_awaddr_i = 32'h9000_0000;
        inport_wvalid_i = 1;
        inport_wdata_i = 32'hDEAD_BEEF;
        inport_wstrb_i = 4'hF;
        expected_response = 2'b11;

        #20;
        $display("[%0t] inport_awvalid_i: %b, inport_awaddr_i: %h, inport_awready_o: %b", $time, inport_awvalid_i, inport_awaddr_i, inport_awready_o);
        $display("[%0t] outport_peripheral0_awvalid_o: %b, outport_peripheral0_awaddr_o: %h", $time, outport_peripheral0_awvalid_o, outport_peripheral0_awaddr_o );
        $display("[%0t] inport_wvalid_i: %b, inport_wdata_i: %h", $time, inport_wvalid_i, inport_wdata_i );
        assert(outport_peripheral0_awaddr_o == inport_awaddr_i) else $error("Wrong awaddr");
        assert(outport_peripheral0_awvalid_o == 1) else $error("Wrong awvalid");
        assert(outport_peripheral0_wdata_o == inport_wdata_i) else $error("Wrong wdata");
        assert(outport_peripheral0_wvalid_o == 1) else $error("Wrong wvalid");
        assert(outport_peripheral0_wstrb_o == inport_wstrb_i) else $error("Wrong wstrb");
```
This block verifies that the write transaction with address 32'h9000_0000 (which is >= 32'h8000_0000) is routed to the peripheral interface.

Then later, another block for the default interface:
```
        #30
        inport_awvalid_i = 1;
        inport_awaddr_i = 32'h4000_0000;
        inport_wvalid_i = 1;
        inport_wdata_i = 32'hBEEF_FEED;
        inport_wstrb_i = 4'hF;
        expected_response_default = 2'b10;

        #20;
        $display("[%0t] inport_awvalid_i: %b, inport_awaddr_i: %h, inport_awready_o: %b", $time, inport_awvalid_i, inport_awaddr_i, inport_awready_o);
        $display("[%0t] outport_awvalid_o: %b, outport_awaddr_o: %h", $time, outport_awvalid_o, outport_awaddr_o );
        assert(outport_awaddr_o == inport_awaddr_i) else $error("Wrong awaddr");
        assert(outport_awvalid_o == 1) else $error("Wrong awvalid");
        assert(outport_wdata_o == inport_wdata_i) else $error("Wrong wdata");
        assert(outport_wvalid_o == 1) else $error("Wrong wvalid");
        assert(outport_wstrb_o == inport_wstrb_i) else $error("Wrong wstrb");
```
This block verifies that the write transaction with address 32'h4000_0000 (which is < 32'h8000_0000) is routed to the default interface.

So these two blocks are the ones that route and verify the expected values for the AXI4-Lite transactions for the write channel. But then there is also read transaction routing blocks. But the question says "two blocks of code in the axi_tap_tb testbench that route and verify the expected values for the AXI4-Lite transactions based on the address decoding and the corresponding input signals (AW, W, AR, R)".

Let's check the testbench code for read transactions. There is a block that starts with:
```
        #30
        outport_peripheral0_rvalid_i = 1'b1;
        outport_peripheral0_rdata_i = 32'h12345678;
        outport_peripheral0_rresp_i = 2'b11;

        outport_rvalid_i = 1'b1;
        outport_rdata_i = 32'h87654321;
        outport_rresp_i = 2'b10;
        #20

        inport_arvalid_i = 1;
        inport_araddr_i = 32'h4000_0000;
        #10
        $display("[%0t] inport_rdata_o: %h, inport_rvalid_o: %h, inport_rresp_o: %b", $time, inport_rdata_o, inport_rvalid_o, inport_rresp_o);
        assert(inport_rdata_o == outport_rdata_i) else $error("Wrong rdata");
        assert(inport_rvalid_o == 1) else $error("Wrong rvalid");
```
That block is for a read transaction to the default interface.

Then there is another block:
```
        $display("[%0t] inport_araddr_i: %h", $time, inport_araddr_i);

        if (inport_araddr_i >= 32'h8000_0000 ) begin
            assert(inport_arvalid_i == outport_peripheral0_arvalid_o) else $error("Wrong arvalid");
            assert(inport_araddr_i == outport_peripheral0_araddr_o) else $error("Wrong araddr");
        end
        if (inport_araddr_i < 32'h8000_0000 ) begin
            assert(inport_arvalid_i == outport_arvalid_o) else $error("Wrong arvalid");
            assert(inport_araddr_i == outport_araddr_o) else $error("Wrong araddr");
        end
```
That block verifies the routing for the read address channel. And then further, there is a similar block for read transactions in a loop:
```
            if (inport_araddr_i >= 32'h8000_0000 ) begin
                assert(inport_arvalid_i == outport_peripheral0_arvalid_o) else $error("Wrong arvalid");
                assert(inport_araddr_i == outport_peripheral0_araddr_o) else $error("Wrong araddr");
            end
            else begin
                assert(inport_arvalid_i == outport_arvalid_o) else $error("Wrong arvalid");
                assert(inport_araddr_i == outport_araddr_o) else $error("Wrong araddr");
            end
            $display("[%0t] Iteration: %0d, inport_rvalid_o: %h, inport_rdata_o: %h, inport_rresp_o: %b", $time, i, inport_rvalid_o, inport_rdata_o, inport_rresp_o);
```
But which two blocks are the ones that "route and verify the expected values for the AXI4-Lite transactions based on the address decoding and the corresponding input signals (AW, W, AR, R)"? The question likely refers to the two blocks that check the write transactions, because they include routing of AW and W channels for both peripheral and default interfaces.

But the question states: "Identify the two blocks of code in the axi_tap_tb testbench that route and verify the expected values for the AXI4-Lite transactions based on the address decoding and the corresponding input signals (AW, W, AR, R) in the AXI4-Lite protocol."

Maybe the two blocks are:
Block 1: Write transaction block for peripheral interface (address 32'h9000_0000) where the testbench asserts that the DUT routes the transaction to outport_peripheral0_* signals.
Block 2: Write transaction block for default interface (address 32'h4000_0000) where the testbench asserts that the DUT routes the transaction to outport_* signals.

Let's check the text: "Identify the two blocks of code" - likely we need to output two code blocks extracted from the testbench. And "only give code snippets in the response." So we need to output them as code snippets in the JSON response.

So I'll output JSON with "response" key and then inside the value I'll include the two code blocks separated maybe by newline. But the instructions say: "Provide your response using the format: { "response": "<your answer here>" }".

So the answer should be something like:
{
  "response": "Block 1: [code snippet for peripheral write routing] Block 2: [code snippet for default write routing]"
}

But we need to include the code blocks exactly as they appear in the testbench. We need to include verbatim code. And must include proper escaping of quotes and newlines.

The question says: "Provide your response using the format: { "response": "<your answer here>" }". So we need to produce a JSON with key "response" and value a string that is the answer. The answer should be one answer that identifies the two blocks of code in the axi_tap_tb testbench that route and verify the expected values for the AXI4-Lite transactions based on the address decoding and the corresponding input signals (AW, W, AR, R) in the AXI4-Lite protocol.

Which two blocks? Let's re-read the testbench code and identify them:

I see that the testbench code has two distinct sections where it sets up a write transaction. The first write transaction uses address 32'h9000_0000, which is in the peripheral range (>= 32'h8000_0000). The code snippet is:

```
        #20;
        inport_awvalid_i = 1;
        inport_awaddr_i = 32'h9000_0000;
        inport_wvalid_i = 1;
        inport_wdata_i = 32'hDEAD_BEEF;
        inport_wstrb_i = 4'hF;
        expected_response = 2'b11;

        #20;
        $display("[%0t] inport_awvalid_i: %b, inport_awaddr_i: %h, inport_awready_o: %b", $time, inport_awvalid_i, inport_awaddr_i, inport_awready_o);
        $display("[%0t] outport_peripheral0_awvalid_o: %b, outport_peripheral0_awaddr_o: %h", $time, outport


Score : 0.03351595487964956
