<think>We are Phi, and the user's request is: "Identify the two blocks of code in the axi_tap_tb testbench that route and verify the expected values for the AXI4-Lite transactions based on the address decoding and the corresponding input signals (AW, W, AR, R) in the AXI4-Lite protocol." The answer should be in JSON format: { "response": "<your answer here>" }.

We have to provide one answer for the request: "Identify the two blocks of code in the axi_tap_tb testbench that route and verify the expected values for the AXI4-Lite transactions based on the address decoding and the corresponding input signals (AW, W, AR, R) in the AXI4-Lite protocol."

So we must extract the code blocks from the given axi_tap_tb testbench that route and verify the expected values for the AXI4-Lite transactions based on the address decoding. Let's check the given testbench code snippet.

The testbench code is given in the user's prompt. We have two blocks of code that are "routing" and "verifying" expected values. Let's check the code carefully.

The testbench code is quite long. We need to identify two blocks of code that do the following: They route and verify the expected values for the AXI4-Lite transactions based on the address decoding and the corresponding input signals (AW, W, AR, R). The answer should include code snippets.

Let's scan the code snippet for two blocks that do routing and verifying expected values. I see that in the testbench code, there are several sections that assert equality of signals. The first block: In the initial block, after #20, there is a block of code that does the following:

```
        #20;
        inport_awvalid_i = 1;
        inport_awaddr_i = 32'h9000_0000;
        inport_wvalid_i = 1;
        inport_wdata_i = 32'hDEAD_BEEF;
        inport_wstrb_i = 4'hF;
        expected_response = 2'b11;

        #20;
        $display("[%0t] inport_awvalid_i: %b, inport_awaddr_i: %h, inport_awready_o: %b", $time, inport_awvalid_i, inport_awaddr_i, inport_awready_o);
        $display("[%0t] outport_peripheral0_awvalid_o: %b, outport_peripheral0_awaddr_o: %h", $time, outport_peripheral0_awvalid_o, outport_peripheral0_awaddr_o );
        $display("[%0t] inport_wvalid_i: %b, inport_wdata_i: %h", $time, inport_wvalid_i, inport_wdata_i );
        assert(outport_peripheral0_awaddr_o == inport_awaddr_i) else $error("Wrong awaddr");
        assert(outport_peripheral0_awvalid_o == 1) else $error("Wrong awvalid");
        assert(outport_peripheral0_wdata_o == inport_wdata_i) else $error("Wrong wdata");
        assert(outport_peripheral0_wvalid_o == 1) else $error("Wrong wvalid");
        assert(outport_peripheral0_wstrb_o == inport_wstrb_i) else $error("Wrong wstrb");
```

This block is routing a transaction with address 32'h9000_0000 and verifying that the output signals from the peripheral interface match the expected ones. So that's one block.

Then the second block is later in the code. After that, there is another block that verifies the routing for default interface. It appears after some delays, we see:

```
        inport_awvalid_i = 1;
        inport_awaddr_i = 32'h4000_0000;
        inport_wvalid_i = 1;
        inport_wdata_i = 32'hBEEF_FEED;
        inport_wstrb_i = 4'hF;
        expected_response_default = 2'b10;

        #20;
        $display("[%0t] inport_awvalid_i: %b, inport_awaddr_i: %h, inport_awready_o: %b", $time, inport_awvalid_i, inport_awaddr_i, inport_awready_o);
        $display("[%0t] outport_awvalid_o: %b, outport_awaddr_o: %h", $time, outport_awvalid_o, outport_awaddr_o );
        assert(outport_awaddr_o == inport_awaddr_i) else $error("Wrong awaddr");
        assert(outport_awvalid_o == 1) else $error("Wrong awvalid");
        assert(outport_wdata_o == inport_wdata_i) else $error("Wrong wdata");
        assert(outport_wvalid_o == 1) else $error("Wrong wvalid");
        assert(outport_wstrb_o == inport_wstrb_i) else $error("Wrong wstrb");
```

This block routes a transaction with address 32'h4000_0000 and verifies that the default interface (outport_awvalid_o, etc.) matches the expected values. So these are two blocks that route and verify the expected values for the AXI4-Lite transactions based on address decoding. They are clearly in the initial block of the testbench. But wait, are there any other blocks that do routing and verifying? There is also a block that verifies read transactions. Let's check:

After that, there is another block that verifies read transactions:

```
        #30
        outport_peripheral0_rvalid_i = 1'b1;
        outport_peripheral0_rdata_i = 32'h12345678;
        outport_peripheral0_rresp_i = 2'b11;

        outport_rvalid_i = 1'b1;
        outport_rdata_i = 32'h87654321;
        outport_rresp_i = 2'b10;
        #20

        inport_arvalid_i = 1;
        inport_araddr_i = 32'h4000_0000;
        #10
        $display("[%0t] inport_rdata_o: %h, inport_rvalid_o: %h, inport_rresp_o: %b", $time, inport_rdata_o, inport_rvalid_o, inport_rresp_o);
        assert(inport_rdata_o == outport_rdata_i) else $error("Wrong rdata");
        assert(inport_rvalid_o == 1) else $error("Wrong rvalid");

        $display("[%0t] inport_araddr_i: %h", $time, inport_araddr_i);

        if (inport_araddr_i >= 32'h8000_0000 ) begin
            assert(inport_arvalid_i == outport_peripheral0_arvalid_o) else $error("Wrong arvalid");
            assert(inport_araddr_i == outport_peripheral0_araddr_o) else $error("Wrong araddr");
        end
        if (inport_araddr_i < 32'h8000_0000 ) begin
            assert(inport_arvalid_i == outport_arvalid_o) else $error("Wrong arvalid");
            assert(inport_araddr_i == outport_araddr_o) else $error("Wrong araddr");
        end
```

This block is for read transaction verification. But the question specifically says: "Identify the two blocks of code in the axi_tap_tb testbench that route and verify the expected values for the AXI4-Lite transactions based on the address decoding and the corresponding input signals (AW, W, AR, R) in the AXI4-Lite protocol." So the answer is ambiguous: It might be the two blocks for routing: one for the peripheral interface and one for the default interface. But wait, the question says "two blocks of code", so likely we have to choose two blocks: one block for routing AW/W transactions for the peripheral interface, and one block for routing AW/W transactions for the default interface. Let's re-read the test plan snippet provided at the top. It says "Test Plan for AXI4-Lite TAP Module" and then "Test Case 1: Read Transaction Validation", "Test Case 2: Randomized Read/Write Operations", etc. But the question is: "Identify the two blocks of code in the axi_tap_tb testbench that route and verify the expected values for the AXI4-Lite transactions based on the address decoding and the corresponding input signals (AW, W, AR, R) in the AXI4-Lite protocol." So likely the answer is: The first block is the one that routes a transaction to the peripheral interface using an address of 32'h9000_0000, and then verifying that the DUT routes that transaction to the peripheral interface signals (outport_peripheral0_awvalid_o, outport_peripheral0_awaddr_o, outport_peripheral0_wdata_o, etc.). The second block is the one that routes a transaction to the default interface using an address of 32'h4000_0000, and then verifying that the DUT routes that transaction to the default interface signals (outport_awvalid_o, outport_awaddr_o, outport_wdata_o, etc.).

I want to double-check: The code snippet includes two distinct blocks that check AW/W signals. The first block is:

Block 1 (starting at line after #20, first block):
```
        #20;
        inport_awvalid_i = 1;
        inport_awaddr_i = 32'h9000_0000;
        inport_wvalid_i = 1;
        inport_wdata_i = 32'hDEAD_BEEF;
        inport_wstrb_i = 4'hF;
        expected_response = 2'b11;

        #20;
        $display("[%0t] inport_awvalid_i: %b, inport_awaddr_i: %h, inport_awready_o: %b", $time, inport_awvalid_i, inport_awaddr_i, inport_awready_o);
        $display("[%0t] outport_peripheral0_awvalid_o: %b, outport_peripheral0_awaddr_o: %h", $time, outport_peripheral0_awvalid_o, outport_peripheral0_awaddr_o );
        $display("[%0t] inport_wvalid_i: %b, inport_wdata_i: %h", $time, inport_wvalid_i, inport_wdata_i );
        assert(outport_peripheral0_awaddr_o == inport_awaddr_i) else $error("Wrong awaddr");
        assert(outport_peripheral0_awvalid_o == 1) else $error("Wrong awvalid");
        assert(outport_peripheral0_wdata_o == inport_wdata_i) else $error("Wrong wdata");
        assert(outport_peripheral0_wvalid_o == 1) else $error("Wrong wvalid");
        assert(outport_peripheral0_wstrb_o == inport_wstrb_i) else $error("Wrong wstrb");
```

Block 2 (starting after some delays):
```
        inport_awvalid_i = 1;
        inport_awaddr_i = 32'h4000_0000;
        inport_wvalid_i = 1;
        inport_wdata_i = 32'hBEEF_FEED;
        inport_wstrb_i = 4'hF;
        expected_response_default = 2'b10;

        #20;
        $display("[%0t] inport_awvalid_i: %b, inport_awaddr_i: %h, inport_awready_o: %b", $time, inport_awvalid_i, inport_awaddr_i, inport_awready_o);
        $display("[%0t] outport_awvalid_o: %b, outport_awaddr_o: %h", $time, outport_awvalid_o, outport_awaddr_o );
        assert(outport_awaddr_o == inport_awaddr_i) else $error("Wrong awaddr");
        assert(outport_awvalid_o == 1) else $error("Wrong awvalid");
        assert(outport_wdata_o == inport_wdata_i) else $error("Wrong wdata");
        assert(outport_wvalid_o == 1) else $error("Wrong wvalid");
        assert(outport_wstrb_o == inport_wstrb_i) else $error("Wrong wstrb");
```

These two blocks are clearly routing AW/W transactions to the peripheral and default interfaces respectively.

However, the question also mentions AR/R transactions. The testbench code also includes a block that verifies read transactions. But the question said "Identify the two blocks of code ... based on the address decoding and the corresponding input signals (AW, W, AR, R) in the AXI4-Lite protocol." Possibly the two blocks are the ones that verify routing for write and read transactions. But then we have two blocks: one block for write transactions (the two blocks for AW/W) and one block for read transactions. But the question says "two blocks of code" and then "route and verify the expected values for the AXI4-Lite transactions based on the address decoding and the corresponding input signals (AW, W, AR, R)". The testbench code has multiple blocks that check routing. Let's re-read the question carefully:

"Provide me one answer for this request: Identify the two blocks of code in the axi_tap_tb testbench that route and verify the expected values for the AXI4-Lite transactions based on the address decoding and the corresponding input signals (AW, W, AR, R) in the AXI4-Lite protocol."

The question states: "Identify the two blocks of code" which suggests there are exactly two blocks that do routing and verifying. Looking at the testbench code, there are multiple assertions. But the ones that are most clearly routing and verifying the expected values for the AXI4-Lite transactions based on address decoding are the ones for AW/W transactions that check if the address is in the peripheral range (32'h9000_0000) or default range (32'h4000_0000). They are clearly separated by the address. The first block uses address 32'h9000_0000 which is above 32'h8000_0000, so it routes to the peripheral interface. The second block uses address 32'h4000_0000 which is below 32'h8000_0000, so it routes to the default interface.

Thus, I answer: The two blocks are:

Block 1 (Peripheral routing):
```
        #20;
        inport_awvalid_i = 1;
        inport_awaddr_i = 32'h9000_0000;
        inport_wvalid_i = 1;
        inport_wdata_i = 32'hDEAD_BEEF;
        inport_wstrb_i = 4'hF;
        expected_response = 2'b11;

        #20;
        $display("[%0t] inport_awvalid_i: %b, inport_awaddr_i: %h, inport_awready_o: %b", $time, inport_awvalid_i, inport_awaddr_i, inport_awready_o);
        $display("[%0t] outport_peripheral0_awvalid_o: %b, outport_peripheral0_awaddr_o: %h", $time, outport_peripheral0_awvalid_o, outport_peripheral0_awaddr_o );
        $display("[%0t] inport_wvalid_i: %b, inport_wdata_i: %h", $time, inport_wvalid_i, inport_wdata_i );
        assert(outport_peripheral0_awaddr_o == inport_awaddr_i) else $error("Wrong awaddr");
        assert(outport_peripheral0_awvalid_o == 1) else $error("Wrong awvalid");
        assert(outport_peripheral0_wdata_o == inport_wdata_i) else $error("Wrong wdata");
        assert(outport_peripheral0_wvalid_o == 1) else $error("Wrong wvalid");
        assert(outport_peripheral0_wstrb_o == inport_wstrb_i) else $error("Wrong wstrb");
```

Block 2 (Default routing):
```
        inport_awvalid_i = 1;
        inport_awaddr_i = 32'h4000_0000;
        inport_wvalid_i = 1;
        inport_wdata_i = 32'hBEEF_FEED;
        inport_wstrb_i = 4'hF;
        expected_response_default = 2'b10;

        #20;
        $display("[%0t] inport_awvalid_i: %b, inport_awaddr_i: %h, inport_awready_o: %b", $time, inport_awvalid_i, inport_awaddr_i, inport_awready_o);
        $display("[%0t] outport_awvalid_o: %b, outport_awaddr_o: %h", $time, outport_awvalid_o, outport_awaddr_o );
        assert(outport_awaddr_o == inport_awaddr_i) else $error("Wrong awaddr");
        assert(outport_awvalid_o == 1) else $error("Wrong awvalid");
        assert(outport_wdata_o == inport_wdata_i) else $error("Wrong wdata");
        assert(outport_wvalid_o == 1) else $error("Wrong wvalid");
        assert(outport_wstrb_o == inport_wstrb_i) else $error("Wrong wstrb");
```

These two blocks correspond to the routing and verification of transactions based on address decoding: one for the peripheral interface (addresses >= 32'h8000_0000) and one for the default interface (addresses < 32'h8000_0000).

We need to output the answer in JSON format with "response": "<your answer here>" using double quotes. The answer should be one answer, in JSON format.

Thus, I'll provide: 
{
  "response": "Block 1: ...; Block 2: ..." 
}

I must provide the answer as code snippet in JSON format. But the answer must be only code snippets in the response. The instructions say: "Only give code snippets in the response." And then "Provide your response using the format: { "response": "<your answer here>" }". So I need to output a JSON object with a key "response" and a string value containing the answer. And I must include the code snippets in the answer.

I need to output the answer in JSON format with double quotes around keys and values, and proper escaping of quotes and newlines. I need to escape newlines if necessary. The answer says "Provide your response using the format: { "response": "<your answer here>" }". So I'll output: { "response": "Block 1: ... Block 2: ..." } with proper escaping.

I need to include the code snippet exactly as it appears in the testbench, but possibly with newlines. The instructions say "only give code snippets in the response." So I'll include the two blocks of code.

I can