Reference:
```
    repeat (100) begin
        fork
            write_transaction(32'h8000_1000, 32'hA5A5A5A5, 4'hF, 2'b00);
            read_transaction(32'h4000_2000);
        join
    end
```
```

    task automatic write_transaction(input [ADDR_WIDTH-1:0] addr, input [DATA_WIDTH-1:0] data, input [3:0] wstrb, input [1:0] expected_resp);
    inport_awvalid_i = 1;
    inport_awaddr_i = addr;
    inport_wvalid_i = 1;
    inport_wdata_i = data;
    inport_wstrb_i = wstrb;
    expected_resp = 2'b11;

    outport_peripheral0_bvalid_i = 1;
    outport_peripheral0_bresp_i = expected_resp;
    outport_bvalid_i = 1;
    outport_bresp_i = expected_resp;

    #10
    $display("[%0t] inport_bresp_o", $time, inport_bresp_o);

    assert(inport_bresp_o == expected_resp) else $error("Write Response Mismatch!");

    outport_peripheral0_bvalid_i = 0;
    endtask

    task automatic read_transaction(input [ADDR_WIDTH-1:0] addr);
        logic [1:0] expected_resp;
        logic [31:0] expected_data;

        outport_peripheral0_rvalid_i = 1'b1;
        outport_peripheral0_rdata_i = 32'h12345678;
        outport_peripheral0_rresp_i = 2'b11;
        outport_rvalid_i = 1'b1;
        outport_rdata_i = 32'h87654321;
        outport_rresp_i = 2'b10;
        #20
        inport_arvalid_i = 1;
        inport_araddr_i = addr;

        if (addr >= 32'h8000_0000 ) begin
            expected_data = outport_peripheral0_rdata_i;
            expected_resp = outport_peripheral0_rresp_i;
        end
        else begin
            expected_data = outport_rdata_i;
            expected_resp = outport_rresp_i;
        end

        #10
        $display("[%0t] addr %h  ", $time, inport_araddr_i);
        $display("[%0t] inport_rdata_o %h,inport_rresp_o %h,inport_rvalid_o %h ", $time, inport_rdata_o, inport_rresp_o ,inport_rvalid_o);
        $display("[%0t] expected_data %h,expected_resp %h ", $time, expected_data,expected_resp);
        assert(inport_rdata_o == expected_data) else $error("Read Data Mismatch!");
        assert(inport_rresp_o == expected_resp) else $error("Read Response Mismatch!");
        
        outport_rvalid_i = 0;
    endtask

```


Response:
<think>We are given a long prompt. The prompt describes that we are to respond with a JSON response in one of two JSON schemas. The question: "Provide me one answer for this request: Identify the two blocks of code in the axi_tap_tb testbench that route and verify the expected values for the AXI4-Lite transactions based on the address decoding and the corresponding input signals (AW, W, AR, R) in the AXI4-Lite protocol." The answer should include only code snippets in the response. The answer should be in the format: { "response": "<your answer here>" } with code snippets.

We are given testbench code for axi_tap_tb.sv. We need to identify two blocks of code in the testbench that route and verify the expected values for the AXI4-Lite transactions based on the address decoding and the corresponding input signals (AW, W, AR, R). The testbench code includes multiple blocks of code. Let's read the code and find two blocks that "route and verify the expected values for the AXI4-Lite transactions based on address decoding and the corresponding input signals (AW, W, AR, R)". We see that the code has several sections:

- There is an initial block that begins with "initial begin", then several transactions occur. There is one block that seems to be the first transaction block, which is the write transaction to peripheral interface:
```
#20;
        inport_awvalid_i = 1;
        inport_awaddr_i = 32'h9000_0000;
        inport_wvalid_i = 1;
        inport_wdata_i = 32'hDEAD_BEEF;
        inport_wstrb_i = 4'hF;
        expected_response = 2'b11;
```
Then after #20, some displays and assertions:
```
        $display("[%0t] inport_awvalid_i: %b, inport_awaddr_i: %h, inport_awready_o: %b", $time, inport_awvalid_i, inport_awaddr_i, inport_awready_o);
        $display("[%0t] outport_peripheral0_awvalid_o: %b, outport_peripheral0_awaddr_o: %h", $time, outport_peripheral0_awvalid_o, outport_peripheral0_awaddr_o );
        $display("[%0t] inport_wvalid_i: %b, inport_wdata_i: %h", $time, inport_wvalid_i, inport_wdata_i );
        assert(outport_peripheral0_awaddr_o == inport_awaddr_i) else $error("Wrong awaddr");
        assert(outport_peripheral0_awvalid_o == 1) else $error("Wrong awvalid");
        assert(outport_peripheral0_wdata_o == inport_wdata_i) else $error("Wrong wdata");
        assert(outport_peripheral0_wvalid_o == 1) else $error("Wrong wvalid");
        assert(outport_peripheral0_wstrb_o == inport_wstrb_i) else $error("Wrong wstrb");
```
This block routes the transaction and verifies the expected values. It is clearly the first block that does the routing and verification of expected values for a transaction on the peripheral interface. So that's one block.

- Next, there is a second block for default interface transactions:
```
        inport_awvalid_i = 1;
        inport_awaddr_i = 32'h4000_0000;
        inport_wvalid_i = 1;
        inport_wdata_i = 32'hBEEF_FEED;
        inport_wstrb_i = 4'hF;
        expected_response_default = 2'b10;
```
After that, there's a #20 delay and then displays and assertions:
```
        $display("[%0t] inport_awvalid_i: %b, inport_awaddr_i: %h, inport_awready_o: %b", $time, inport_awvalid_i, inport_awaddr_i, inport_awready_o);
        $display("[%0t] outport_awvalid_o: %b, outport_awaddr_o: %h", $time, outport_awvalid_o, outport_awaddr_o );
        assert(outport_awaddr_o == inport_awaddr_i) else $error("Wrong awaddr");
        assert(outport_awvalid_o == 1) else $error("Wrong awvalid");
        assert(outport_wdata_o == inport_wdata_i) else $error("Wrong wdata");
        assert(outport_wvalid_o == 1) else $error("Wrong wvalid");
        assert(outport_wstrb_o == inport_wstrb_i) else $error("Wrong wstrb");
```
That block verifies the default interface transaction. So that is the second block.

However, the question says "Identify the two blocks of code in the axi_tap_tb testbench that route and verify the expected values for the AXI4-Lite transactions based on the address decoding and the corresponding input signals (AW, W, AR, R) in the AXI4-Lite protocol." The question then lists test steps and expected outcomes. It says "Only give code snippets in the response." So I need to output a JSON object with key "response" and then the code snippets that correspond to these two blocks. But careful: The question is "Provide me one answer for this request" with the given objective. So the answer should be in JSON with one key "response" that contains the answer. But the answer should be in one of the two JSON schemas provided. The instructions say "Provide your response using the format: { "response": "<your answer here>" }". So I'll output JSON with key "response" and the value is a string containing the answer. The answer should only include code snippets. The answer should be verbatim code that corresponds to the test plan snippet. Wait, the prompt says: "Consider that you have a folder structure ... Provide the response in one of the following JSON schemas: { "code": [{ "<name>" : "<code>"}] } or { "response": "<response>" }." But the instructions then say "Only give code snippets in the response." So I'll output JSON with key "response" and the value is the answer. The answer is to provide the two blocks of code that route and verify the expected values for the AXI4-Lite transactions. The two blocks are the ones we identified. They are:

Block 1 (Peripheral interface, high addresses):
```
#20;
        inport_awvalid_i = 1;
        inport_awaddr_i = 32'h9000_0000;
        inport_wvalid_i = 1;
        inport_wdata_i = 32'hDEAD_BEEF;
        inport_wstrb_i = 4'hF;
        expected_response = 2'b11;
```
Then the assertions:
```
        $display("[%0t] inport_awvalid_i: %b, inport_awaddr_i: %h, inport_awready_o: %b", $time, inport_awvalid_i, inport_awaddr_i, inport_awready_o);
        $display("[%0t] outport_peripheral0_awvalid_o: %b, outport_peripheral0_awaddr_o: %h", $time, outport_peripheral0_awvalid_o, outport_peripheral0_awaddr_o );
        $display("[%0t] inport_wvalid_i: %b, inport_wdata_i: %h", $time, inport_wvalid_i, inport_wdata_i );
        assert(outport_peripheral0_awaddr_o == inport_awaddr_i) else $error("Wrong awaddr");
        assert(outport_peripheral0_awvalid_o == 1) else $error("Wrong awvalid");
        assert(outport_peripheral0_wdata_o == inport_wdata_i) else $error("Wrong wdata");
        assert(outport_peripheral0_wvalid_o == 1) else $error("Wrong wvalid");
        assert(outport_peripheral0_wstrb_o == inport_wstrb_i) else $error("Wrong wstrb");
```
That's block 1.

Block 2 (Default interface, lower addresses):
```
        inport_awvalid_i = 1;
        inport_awaddr_i = 32'h4000_0000;
        inport_wvalid_i = 1;
        inport_wdata_i = 32'hBEEF_FEED;
        inport_wstrb_i = 4'hF;
        expected_response_default = 2'b10;
```
Then the assertions:
```
        $display("[%0t] inport_awvalid_i: %b, inport_awaddr_i: %h, inport_awready_o: %b", $time, inport_awvalid_i, inport_awaddr_i, inport_awready_o);
        $display("[%0t] outport_awvalid_o: %b, outport_awaddr_o: %h", $time, outport_awvalid_o, outport_awaddr_o );
        assert(outport_awaddr_o == inport_awaddr_i) else $error("Wrong awaddr");
        assert(outport_awvalid_o == 1) else $error("Wrong awvalid");
        assert(outport_wdata_o == inport_wdata_i) else $error("Wrong wdata");
        assert(outport_wvalid_o == 1) else $error("Wrong wvalid");
        assert(outport_wstrb_o == inport_wstrb_i) else $error("Wrong wstrb");
```
That's block 2.

I need to output these two blocks in the answer. The instructions "Only give code snippets in the response." So I need to output the two code blocks. But the answer is supposed to be in JSON format with key "response" and the value is a string containing the answer.

I can output something like:
```
{
  "response": "Block 1: [code snippet for peripheral interface] \n\nBlock 2: [code snippet for default interface]"
}
```
But instructions require that the answer be in JSON with key "response" and the value is a string that is the answer. But instructions require the answer to be in JSON format with double quotes around keys and values.

I must also ensure proper escaping of newlines. So I'll include newline escapes \n. And also any quotes must be escaped. I can output the code blocks as plain text with proper escaping of quotes. I need to check: "Provide your response using the format: { "response": "<your answer here>" }". So I'll produce a JSON object with "response" key and then the value as a string. I'll produce a string that includes the two code blocks. I'll label them as "Block 1" and "Block 2" to clarify.

I must include verbatim testbench code that corresponds to the test plan snippet. So I'll include the two code blocks exactly as in the testbench file.

I must only output code snippets, and the answer must be in one of the two JSON schemas. I'll use the { "response": "<response>" } schema.

I must produce the answer in one JSON object. The answer should include the two code blocks.

I must include the code blocks as text with proper escaping. I'll produce something like:

{
  "response": "Block 1: (Peripheral Interface)\n\n#20;\n    inport_awvalid_i = 1;\n    inport_awaddr_i = 32'h9000_0000;\n    inport_wvalid_i = 1;\n    inport_wdata_i = 32'hDEAD_BEEF;\n    inport_wstrb_i = 4'hF;\n    expected_response = 2'b11;\n\n    $display(\"[%0t] inport_awvalid_i: %b, inport_awaddr_i: %h, inport_awready_o: %b\", $time, inport_awvalid_i, inport_awaddr_i, inport_awready_o);\n    $display(\"[%0t] outport_peripheral0_awvalid_o: %b, outport_peripheral0_awaddr_o: %h\", $time, outport_peripheral0_awvalid_o, outport_peripheral0_awaddr_o);\n    $display(\"[%0t] inport_wvalid_i: %b, inport_wdata_i: %h\", $time, inport_wvalid_i, inport_wdata_i);\n    assert(outport_peripheral0_awaddr_o == inport_awaddr_i) else $error(\"Wrong awaddr\");\n    assert(outport_peripheral0_awvalid_o == 1) else $error(\"Wrong awvalid\");\n    assert(outport_peripheral0_wdata_o == inport_wdata_i) else $error(\"Wrong wdata\");\n    assert(outport_peripheral0_wvalid_o == 1) else $error(\"Wrong wvalid\");\n    assert(outport_peripheral0_wstrb_o == inport_wstrb_i) else $error(\"Wrong wstrb\");\n\nBlock 2: (Default Interface)\n\n    inport_awvalid_i = 1;\n    inport_awaddr_i = 32'h4000_0000;\n    inport_wvalid_i = 1;\n    inport_wdata_i = 32'hBEEF_FEED;\n    inport_wstrb_i = 4'hF;\n    expected_response_default = 2'b10;\n\n    $display(\"[%0t] inport_awvalid_i: %b, inport_awaddr_i: %h, inport_awready_o: %b\", $time, inport_awvalid_i, inport_awaddr_i, inport_awready_o);\n    $display(\"[%0t] outport_awvalid_o: %b, outport_awaddr_o: %h\", $time, outport_awvalid_o, outport_awaddr_o);\n    assert(outport_awaddr_o == inport_awaddr_i) else $error(\"Wrong awaddr\");\n    assert(outport_awvalid_o == 1) else $error(\"Wrong awvalid\");\n    assert(outport_wdata_o == inport_wdata_i) else $error(\"Wrong wdata\");\n    assert(outport_wvalid_o == 1) else $error(\"Wrong wvalid\");\n    assert(outport_wstrb_o == inport_wstrb_i) else $error(\"Wrong wstrb\");"
}

I need to ensure that the answer is exactly the two code blocks. I must include only code snippets. I must not include any additional text? The instructions say "Only give code snippets in the response." So I need to output only the code snippets. But the instructions say "Only give code snippets in the response." But then "Provide your response using the format: { "response": "<your answer here>" }". So the answer should be a JSON object with key "response" and the value is a string that is the code snippet. But then the instructions "Only give code snippets in the response." So I should only output the two code blocks.

But careful: The answer should be in JSON with the code blocks. I can output the two blocks as separate entries in a JSON array maybe. But the instructions say: "Provide your response using the format: { "response": "<your answer here>" }" so I'll produce a JSON object with key "response" and the value is a string that contains the two code blocks. The two code blocks are separated by newline and maybe labeled. I can output them as "Block 1:" and "Block 2:".

I must ensure to escape newlines with \n and quotes with double quotes.

I can produce something like:

{
  "response": "Block 1 (Peripheral Interface):\n\n#20;\n    inport_awvalid_i = 1;\n    inport_awaddr_i = 32'h9000_0000;\n    inport_wvalid_i = 1;\n    inport_wdata_i = 32'hDEAD_BEEF;\n    inport_wstrb_i = 4'hF;\n    expected_response = 2'b11;\n\n    $display(\"[%0t] inport_awvalid_i: %b, inport_awaddr_i: %h, inport_awready_o: %b\", $time, inport_awvalid_i, inport_awaddr_i, inport_awready_o);\n    $display(\"[%0t] outport_peripheral0_awvalid_o: %b, outport_peripheral0_awaddr_o: %h\", $time, outport_peripheral0_awvalid_o, outport_peripheral0_awaddr_o);\n    $display(\"[%0t] inport_wvalid_i: %b, inport_wdata_i: %h\", $time, inport_wvalid_i, inport_wdata_i);\n    assert(outport_peripheral0_awaddr_o == inport_awaddr_i) else $error(\"Wrong awaddr\");\n    assert(outport_peripheral0_awvalid_o == 1) else $error(\"Wrong awvalid\");\n    assert(outport_peripheral0_wdata_o == inport_wdata_i) else $error(\"Wrong wdata\");\n    assert(outport_peripheral0_wvalid_o == 1) else $error(\"Wrong wvalid\");\n    assert(outport_peripheral0_wstrb_o == inport_wstrb_i) else $error(\"Wrong wstrb\");\n\nBlock 2 (Default Interface):\n\n    inport_awvalid_i = 1;\n    inport_awaddr_i = 32'h4000_0000;\n    inport_wvalid_i = 1;\n    inport_wdata_i = 32'hBEEF_FEED;\n    inport_wstrb_i = 4'hF;\n    expected_response_default = 2'b10;\n\n    $display(\"[%0t] inport_awvalid_i: %b, inport_awaddr_i: %h, inport_awready_o: %b\", $time, inport_awvalid_i, inport_awaddr_i, inport_awready_o);\n    $display(\"[%0t] outport_awvalid_o: %b, outport_awaddr_o: %h\", $time, outport_awvalid_o, outport_awaddr_o);\n    assert(outport_awaddr_o == inport_awaddr_i) else $error(\"Wrong awaddr\");\n    assert(outport_awvalid_o == 1) else $error(\"Wrong awvalid\");\n    assert(outport_wdata_o == inport_wdata_i) else $error(\"Wrong wdata\");\n    assert(outport_wvalid_o == 1) else $error(\"Wrong wvalid\");\n    assert(outport_wstrb_o == inport_wstrb_i) else $error(\"Wrong wstrb\");"
}

I must produce exactly that.

I'll produce the JSON answer accordingly.

I'll


Score : 0.01747742573419847
